name,type,start_time,duration,mosi
SPI,result,2.60495472,0,0xAE
SPI,result,2.60496304,9.60E-07,0xA0
SPI,result,2.60497136,9.60E-07,0x72
SPI,result,2.60497968,9.60E-07,0xA1
SPI,result,2.60498796,0,0x00
SPI,result,2.60499628,0,0xA2
SPI,result,2.6050046,0,0x00
SPI,result,2.60501292,9.60E-07,0xA4
SPI,result,2.60502124,9.60E-07,0xA8
SPI,result,2.60502956,9.60E-07,0x3F
SPI,result,2.60503784,0,0xAD
SPI,result,2.60504616,1.00E-06,0x8E
SPI,result,2.60505448,0,0xB0
SPI,result,2.6050628,9.60E-07,0x0B
SPI,result,2.60507112,9.60E-07,0xB1
SPI,result,2.60507944,9.60E-07,0x31
SPI,result,2.60508772,1.00E-06,0xB3
SPI,result,2.60509604,0,0xF0
SPI,result,2.60510436,0,0x8A
SPI,result,2.60511268,0,0x64
SPI,result,2.605121,9.60E-07,0x8B
SPI,result,2.60512932,9.60E-07,0x78
SPI,result,2.6051376,0,0x8C
SPI,result,2.60514592,0,0x64
SPI,result,2.60515424,0,0xBB
SPI,result,2.60516256,0,0x3A
SPI,result,2.60517088,9.60E-07,0xBE
SPI,result,2.6051792,9.60E-07,0x3E
SPI,result,2.60518748,0,0x87
SPI,result,2.6051958,0,0x06
SPI,result,2.60520412,0,0x81
SPI,result,2.60521244,0,0x91
SPI,result,2.60522076,9.60E-07,0x82
SPI,result,2.60522908,9.60E-07,0x50
SPI,result,2.60523736,0,0x83
SPI,result,2.60524568,0,0x7D
SPI,result,2.605254,0,0xAF
SPI,result,2.60533932,0,0x15
SPI,result,2.60534764,1.00E-06,0x00
SPI,result,2.60535596,9.60E-07,0x5F
SPI,result,2.60536428,9.60E-07,0x75
SPI,result,2.6053726,9.60E-07,0x00
SPI,result,2.60538088,0,0x3F
SPI,result,2.60539352,0,0x00
SPI,result,2.60539504,9.60E-07,0x00
SPI,result,2.6053974,0,0x00
SPI,result,2.60539888,0,0x00
SPI,result,2.60540128,9.60E-07,0x00
SPI,result,2.60540276,0,0x00
SPI,result,2.60540516,9.60E-07,0x00
SPI,result,2.60540664,0,0x00
SPI,result,2.60540904,9.60E-07,0x00
SPI,result,2.60541052,0,0x00
SPI,result,2.60541288,0,0x00
SPI,result,2.6054144,0,0x00
SPI,result,2.60541676,0,0x00
SPI,result,2.60541828,9.60E-07,0x00
SPI,result,2.60542064,0,0x00
SPI,result,2.60542216,9.60E-07,0x00
SPI,result,2.60542452,0,0x00
SPI,result,2.60542604,9.60E-07,0x00
SPI,result,2.6054284,0,0x00
SPI,result,2.60542992,9.60E-07,0x00
SPI,result,2.60543228,9.60E-07,0x00
SPI,result,2.60543376,0,0x00
SPI,result,2.60543616,9.60E-07,0x00
SPI,result,2.60543764,0,0x00
SPI,result,2.60544004,9.60E-07,0x00
SPI,result,2.60544152,0,0x00
SPI,result,2.60544392,9.60E-07,0x00
SPI,result,2.6054454,0,0x00
SPI,result,2.60544776,0,0x00
SPI,result,2.60544928,0,0x00
SPI,result,2.60545164,0,0x00
SPI,result,2.60545316,9.60E-07,0x00
SPI,result,2.60545552,0,0x00
SPI,result,2.60545704,9.60E-07,0x00
SPI,result,2.6054594,0,0x00
SPI,result,2.60546092,9.60E-07,0x00
SPI,result,2.60546328,0,0x00
SPI,result,2.6054648,9.60E-07,0x00
SPI,result,2.60546716,9.60E-07,0x00
SPI,result,2.60546864,0,0x00
SPI,result,2.60547104,9.60E-07,0x00
SPI,result,2.60547252,0,0x00
SPI,result,2.60547492,9.60E-07,0x00
SPI,result,2.6054764,0,0x00
SPI,result,2.6054788,9.60E-07,0x00
SPI,result,2.60548028,0,0x00
SPI,result,2.60548264,0,0x00
SPI,result,2.60548416,9.60E-07,0x00
SPI,result,2.60548652,0,0x00
SPI,result,2.60548804,9.60E-07,0x00
SPI,result,2.6054904,0,0x00
SPI,result,2.60549192,9.60E-07,0x00
SPI,result,2.60549428,0,0x00
SPI,result,2.6054958,9.60E-07,0x00
SPI,result,2.60549816,0,0x00
SPI,result,2.60549964,0,0x00
SPI,result,2.60550204,9.60E-07,0x00
SPI,result,2.60550352,0,0x00
SPI,result,2.60550592,9.60E-07,0x00
SPI,result,2.6055074,0,0x00
SPI,result,2.6055098,9.60E-07,0x00
SPI,result,2.60551128,0,0x00
SPI,result,2.60551364,0,0x00
SPI,result,2.60551516,0,0x00
SPI,result,2.60551752,0,0x00
SPI,result,2.60551904,9.60E-07,0x00
SPI,result,2.6055214,0,0x00
SPI,result,2.60552292,9.60E-07,0x00
SPI,result,2.60552528,0,0x00
SPI,result,2.6055268,9.60E-07,0x00
SPI,result,2.60552916,0,0x00
SPI,result,2.60553068,9.60E-07,0x00
SPI,result,2.60553304,0,0x00
SPI,result,2.60553452,0,0x00
SPI,result,2.60553692,9.60E-07,0x00
SPI,result,2.6055384,0,0x00
SPI,result,2.6055408,9.60E-07,0x00
SPI,result,2.60554228,0,0x00
SPI,result,2.60554468,9.60E-07,0x00
SPI,result,2.60554616,0,0x00
SPI,result,2.60554852,0,0x00
SPI,result,2.60555004,0,0x00
SPI,result,2.6055524,0,0x00
SPI,result,2.60555392,9.60E-07,0x00
SPI,result,2.60555628,0,0x00
SPI,result,2.6055578,9.60E-07,0x00
SPI,result,2.60556016,0,0x00
SPI,result,2.60556168,9.60E-07,0x00
SPI,result,2.60556404,0,0x00
SPI,result,2.60556556,9.60E-07,0x00
SPI,result,2.60556792,9.60E-07,0x00
SPI,result,2.6055694,0,0x00
SPI,result,2.6055718,9.60E-07,0x00
SPI,result,2.60557328,0,0x00
SPI,result,2.60557568,9.60E-07,0x00
SPI,result,2.60557716,0,0x00
SPI,result,2.60557956,9.60E-07,0x00
SPI,result,2.60558104,0,0x00
SPI,result,2.6055834,0,0x00
SPI,result,2.60558492,0,0x00
SPI,result,2.60558728,0,0x00
SPI,result,2.6055888,9.60E-07,0x00
SPI,result,2.60559116,0,0x00
SPI,result,2.60559268,9.60E-07,0x00
SPI,result,2.60559504,0,0x00
SPI,result,2.60559656,9.60E-07,0x00
SPI,result,2.60559892,0,0x00
SPI,result,2.60560044,9.60E-07,0x00
SPI,result,2.6056028,9.60E-07,0x00
SPI,result,2.60560428,0,0x00
SPI,result,2.60560668,9.60E-07,0x00
SPI,result,2.60560816,0,0x00
SPI,result,2.60561056,9.60E-07,0x00
SPI,result,2.60561204,0,0x00
SPI,result,2.60561444,9.60E-07,0x00
SPI,result,2.60561592,0,0x00
SPI,result,2.60561828,0,0x00
SPI,result,2.6056198,9.60E-07,0x00
SPI,result,2.60562216,0,0x00
SPI,result,2.60562368,9.60E-07,0x00
SPI,result,2.60562604,0,0x00
SPI,result,2.60562756,9.60E-07,0x00
SPI,result,2.60562992,0,0x00
SPI,result,2.60563144,9.60E-07,0x00
SPI,result,2.6056338,0,0x00
SPI,result,2.60563528,0,0x00
SPI,result,2.60563768,9.60E-07,0x00
SPI,result,2.60563916,0,0x00
SPI,result,2.60564156,9.60E-07,0x00
SPI,result,2.60564304,0,0x00
SPI,result,2.60564544,9.60E-07,0x00
SPI,result,2.60564692,0,0x00
SPI,result,2.60564932,9.60E-07,0x00
SPI,result,2.6056508,0,0x00
SPI,result,2.60565316,0,0x00
SPI,result,2.60565468,9.60E-07,0x00
SPI,result,2.60565704,0,0x00
SPI,result,2.60565856,9.60E-07,0x00
SPI,result,2.60566092,0,0x00
SPI,result,2.60566244,9.60E-07,0x00
SPI,result,2.6056648,0,0x00
SPI,result,2.60566632,9.60E-07,0x00
SPI,result,2.60566868,0,0x00
SPI,result,2.60567016,0,0x00
SPI,result,2.60567256,9.60E-07,0x00
SPI,result,2.60567404,0,0x00
SPI,result,2.60567644,9.60E-07,0x00
SPI,result,2.60567792,0,0x00
SPI,result,2.60568032,9.60E-07,0x00
SPI,result,2.6056818,0,0x00
SPI,result,2.60568416,0,0x00
SPI,result,2.60568568,0,0x00
SPI,result,2.60568804,0,0x00
SPI,result,2.60568956,9.60E-07,0x00
SPI,result,2.60569192,0,0x00
SPI,result,2.60569344,9.60E-07,0x00
SPI,result,2.6056958,0,0x00
SPI,result,2.60569732,9.60E-07,0x00
SPI,result,2.60569968,0,0x00
SPI,result,2.6057012,9.60E-07,0x00
SPI,result,2.60570356,9.60E-07,0x00
SPI,result,2.60570504,0,0x00
SPI,result,2.60570744,9.60E-07,0x00
SPI,result,2.60570892,0,0x00
SPI,result,2.60571132,9.60E-07,0x00
SPI,result,2.6057128,0,0x00
SPI,result,2.6057152,9.60E-07,0x00
SPI,result,2.60571668,0,0x00
SPI,result,2.60571904,0,0x00
SPI,result,2.60572056,0,0x00
SPI,result,2.60572292,0,0x00
SPI,result,2.60572444,9.60E-07,0x00
SPI,result,2.6057268,0,0x00
SPI,result,2.60572832,9.60E-07,0x00
SPI,result,2.60573068,0,0x00
SPI,result,2.6057322,9.60E-07,0x00
SPI,result,2.60573456,1.00E-06,0x00
SPI,result,2.60573608,9.60E-07,0x00
SPI,result,2.60573844,9.60E-07,0x00
SPI,result,2.60573992,0,0x00
SPI,result,2.60574232,9.60E-07,0x00
SPI,result,2.6057438,0,0x00
SPI,result,2.6057462,9.60E-07,0x00
SPI,result,2.60574768,0,0x00
SPI,result,2.60575008,9.60E-07,0x00
SPI,result,2.60575156,0,0x00
SPI,result,2.60575392,0,0x00
SPI,result,2.60575544,9.60E-07,0x00
SPI,result,2.6057578,1.00E-06,0x00
SPI,result,2.60575932,9.60E-07,0x00
SPI,result,2.60576168,0,0x00
SPI,result,2.6057632,9.60E-07,0x00
SPI,result,2.60576556,0,0x00
SPI,result,2.60576708,9.60E-07,0x00
SPI,result,2.60576944,0,0x00
SPI,result,2.60577092,0,0x00
SPI,result,2.60577332,9.60E-07,0x00
SPI,result,2.6057748,0,0x00
SPI,result,2.6057772,9.60E-07,0x00
SPI,result,2.60577868,0,0x00
SPI,result,2.60578108,9.60E-07,0x00
SPI,result,2.60578256,0,0x00
SPI,result,2.60578496,9.60E-07,0x00
SPI,result,2.60578644,0,0x00
SPI,result,2.6057888,0,0x00
SPI,result,2.60579032,9.60E-07,0x00
SPI,result,2.60579268,0,0x00
SPI,result,2.6057942,9.60E-07,0x00
SPI,result,2.60579656,0,0x00
SPI,result,2.60579808,9.60E-07,0x00
SPI,result,2.60580044,0,0x00
SPI,result,2.60580196,9.60E-07,0x00
SPI,result,2.60580432,0,0x00
SPI,result,2.6058058,0,0x00
SPI,result,2.6058082,9.60E-07,0x00
SPI,result,2.60580968,0,0x00
SPI,result,2.60581208,9.60E-07,0x00
SPI,result,2.60581356,0,0x00
SPI,result,2.60581596,9.60E-07,0x00
SPI,result,2.60581744,0,0x00
SPI,result,2.6058198,0,0x00
SPI,result,2.60582132,0,0x00
SPI,result,2.60582368,0,0x00
SPI,result,2.6058252,9.60E-07,0x00
SPI,result,2.60582756,0,0x00
SPI,result,2.60582908,9.60E-07,0x00
SPI,result,2.60583144,0,0x00
SPI,result,2.60583296,9.60E-07,0x00
SPI,result,2.60583532,0,0x00
SPI,result,2.60583684,9.60E-07,0x00
SPI,result,2.6058392,9.60E-07,0x00
SPI,result,2.60584068,0,0x00
SPI,result,2.60584308,9.60E-07,0x00
SPI,result,2.60584456,0,0x00
SPI,result,2.60584696,9.60E-07,0x00
SPI,result,2.60584844,0,0x00
SPI,result,2.60585084,9.60E-07,0x00
SPI,result,2.60585232,0,0x00
SPI,result,2.60585468,0,0x00
SPI,result,2.6058562,0,0x00
SPI,result,2.60585856,0,0x00
SPI,result,2.60586008,9.60E-07,0x00
SPI,result,2.60586244,1.00E-06,0x00
SPI,result,2.60586396,9.60E-07,0x00
SPI,result,2.60586632,0,0x00
SPI,result,2.60586784,9.60E-07,0x00
SPI,result,2.6058702,0,0x00
SPI,result,2.60587172,9.60E-07,0x00
SPI,result,2.60587408,9.60E-07,0x00
SPI,result,2.60587556,0,0x00
SPI,result,2.60587796,9.60E-07,0x00
SPI,result,2.60587944,0,0x00
SPI,result,2.60588184,9.60E-07,0x00
SPI,result,2.60588332,0,0x00
SPI,result,2.60588572,9.60E-07,0x00
SPI,result,2.6058872,0,0x00
SPI,result,2.60588956,0,0x00
SPI,result,2.60589108,1.00E-06,0x00
SPI,result,2.60589344,0,0x00
SPI,result,2.60589496,9.60E-07,0x00
SPI,result,2.60589732,0,0x00
SPI,result,2.60589884,9.60E-07,0x00
SPI,result,2.6059012,0,0x00
SPI,result,2.60590272,9.60E-07,0x00
SPI,result,2.60590508,0,0x00
SPI,result,2.60590656,0,0x00
SPI,result,2.60590896,9.60E-07,0x00
SPI,result,2.60591044,0,0x00
SPI,result,2.60591284,9.60E-07,0x00
SPI,result,2.60591432,1.00E-06,0x00
SPI,result,2.60591672,9.60E-07,0x00
SPI,result,2.6059182,0,0x00
SPI,result,2.6059206,9.60E-07,0x00
SPI,result,2.60592208,0,0x00
SPI,result,2.60592444,0,0x00
SPI,result,2.60592596,9.60E-07,0x00
SPI,result,2.60592832,0,0x00
SPI,result,2.60592984,9.60E-07,0x00
SPI,result,2.6059322,0,0x00
SPI,result,2.60593372,9.60E-07,0x00
SPI,result,2.60593608,1.00E-06,0x00
SPI,result,2.6059376,9.60E-07,0x00
SPI,result,2.60593996,0,0x00
SPI,result,2.60594144,0,0x00
SPI,result,2.60594384,9.60E-07,0x00
SPI,result,2.60594532,0,0x00
SPI,result,2.60594772,9.60E-07,0x00
SPI,result,2.6059492,0,0x00
SPI,result,2.6059516,9.60E-07,0x00
SPI,result,2.60595308,0,0x00
SPI,result,2.60595544,0,0x00
SPI,result,2.60595696,0,0x00
SPI,result,2.60595932,1.00E-06,0x00
SPI,result,2.60596084,9.60E-07,0x00
SPI,result,2.6059632,0,0x00
SPI,result,2.60596472,9.60E-07,0x00
SPI,result,2.60596708,0,0x00
SPI,result,2.6059686,9.60E-07,0x00
SPI,result,2.60597096,0,0x00
SPI,result,2.60597248,9.60E-07,0x00
SPI,result,2.60597484,9.60E-07,0x00
SPI,result,2.60597632,0,0x00
SPI,result,2.60597872,9.60E-07,0x00
SPI,result,2.6059802,0,0x00
SPI,result,2.6059826,9.60E-07,0x00
SPI,result,2.60598408,0,0x00
SPI,result,2.60598648,9.60E-07,0x00
SPI,result,2.60598796,0,0x00
SPI,result,2.60599032,0,0x00
SPI,result,2.60599184,0,0x00
SPI,result,2.6059942,0,0x00
SPI,result,2.60599572,9.60E-07,0x00
SPI,result,2.60599808,0,0x00
SPI,result,2.6059996,9.60E-07,0x00
SPI,result,2.60600196,0,0x00
SPI,result,2.60600348,9.60E-07,0x00
SPI,result,2.60600584,0,0x00
SPI,result,2.60600736,9.60E-07,0x00
SPI,result,2.60600972,9.60E-07,0x00
SPI,result,2.6060112,1.00E-06,0x00
SPI,result,2.6060136,9.60E-07,0x00
SPI,result,2.60601508,0,0x00
SPI,result,2.60601748,9.60E-07,0x00
SPI,result,2.60601896,1.00E-06,0x00
SPI,result,2.60602136,9.60E-07,0x00
SPI,result,2.60602284,0,0x00
SPI,result,2.6060252,0,0x00
SPI,result,2.60602672,0,0x00
SPI,result,2.60602908,0,0x00
SPI,result,2.6060306,9.60E-07,0x00
SPI,result,2.60603296,0,0x00
SPI,result,2.60603448,9.60E-07,0x00
SPI,result,2.60603684,0,0x00
SPI,result,2.60603836,9.60E-07,0x00
SPI,result,2.60604072,1.00E-06,0x00
SPI,result,2.60604224,9.60E-07,0x00
SPI,result,2.6060446,9.60E-07,0x00
SPI,result,2.60604608,0,0x00
SPI,result,2.60604848,9.60E-07,0x00
SPI,result,2.60604996,0,0x00
SPI,result,2.60605236,9.60E-07,0x00
SPI,result,2.60605384,0,0x00
SPI,result,2.60605624,9.60E-07,0x00
SPI,result,2.60605772,0,0x00
SPI,result,2.60606008,0,0x00
SPI,result,2.6060616,0,0x00
SPI,result,2.60606396,1.00E-06,0x00
SPI,result,2.60606548,9.60E-07,0x00
SPI,result,2.60606784,0,0x00
SPI,result,2.60606936,9.60E-07,0x00
SPI,result,2.60607172,0,0x00
SPI,result,2.60607324,9.60E-07,0x00
SPI,result,2.6060756,0,0x00
SPI,result,2.60607708,0,0x00
SPI,result,2.60607948,9.60E-07,0x00
SPI,result,2.60608096,0,0x00
SPI,result,2.60608336,9.60E-07,0x00
SPI,result,2.60608484,0,0x00
SPI,result,2.60608724,9.60E-07,0x00
SPI,result,2.60608872,0,0x00
SPI,result,2.60609108,0,0x00
SPI,result,2.6060926,1.00E-06,0x00
SPI,result,2.60609496,0,0x00
SPI,result,2.60609648,9.60E-07,0x00
SPI,result,2.60609884,0,0x00
SPI,result,2.60610036,9.60E-07,0x00
SPI,result,2.60610272,0,0x00
SPI,result,2.60610424,9.60E-07,0x00
SPI,result,2.6061066,0,0x00
SPI,result,2.60610812,9.60E-07,0x00
SPI,result,2.60611048,9.60E-07,0x00
SPI,result,2.60611196,0,0x00
SPI,result,2.60611436,9.60E-07,0x00
SPI,result,2.60611584,1.00E-06,0x00
SPI,result,2.60611824,9.60E-07,0x00
SPI,result,2.60611972,0,0x00
SPI,result,2.60612212,9.60E-07,0x00
SPI,result,2.6061236,0,0x00
SPI,result,2.60612596,0,0x00
SPI,result,2.60612748,0,0x00
SPI,result,2.60612984,0,0x00
SPI,result,2.60613136,9.60E-07,0x00
SPI,result,2.60613372,0,0x00
SPI,result,2.60613524,9.60E-07,0x00
SPI,result,2.6061376,0,0x00
SPI,result,2.60613912,9.60E-07,0x00
SPI,result,2.60614148,0,0x00
SPI,result,2.606143,9.60E-07,0x00
SPI,result,2.60614536,9.60E-07,0x00
SPI,result,2.60614684,0,0x00
SPI,result,2.60614924,9.60E-07,0x00
SPI,result,2.60615072,0,0x00
SPI,result,2.60615312,9.60E-07,0x00
SPI,result,2.6061546,0,0x00
SPI,result,2.606157,9.60E-07,0x00
SPI,result,2.60615848,0,0x00
SPI,result,2.60616084,0,0x00
SPI,result,2.60616236,0,0x00
SPI,result,2.60616472,0,0x00
SPI,result,2.60616624,9.60E-07,0x00
SPI,result,2.6061686,0,0x00
SPI,result,2.60617012,9.60E-07,0x00
SPI,result,2.60617248,0,0x00
SPI,result,2.606174,9.60E-07,0x00
SPI,result,2.60617636,0,0x00
SPI,result,2.60617788,9.60E-07,0x00
SPI,result,2.60618024,9.60E-07,0x00
SPI,result,2.60618172,0,0x00
SPI,result,2.60618412,9.60E-07,0x00
SPI,result,2.6061856,0,0x00
SPI,result,2.606188,9.60E-07,0x00
SPI,result,2.60618948,0,0x00
SPI,result,2.60619188,9.60E-07,0x00
SPI,result,2.60619336,0,0x00
SPI,result,2.60619572,0,0x00
SPI,result,2.60619724,1.00E-06,0x00
SPI,result,2.6061996,0,0x00
SPI,result,2.60620112,9.60E-07,0x00
SPI,result,2.60620348,0,0x00
SPI,result,2.606205,9.60E-07,0x00
SPI,result,2.60620736,0,0x00
SPI,result,2.60620888,9.60E-07,0x00
SPI,result,2.60621124,0,0x00
SPI,result,2.60621272,0,0x00
SPI,result,2.60621512,9.60E-07,0x00
SPI,result,2.6062166,0,0x00
SPI,result,2.606219,9.60E-07,0x00
SPI,result,2.60622048,0,0x00
SPI,result,2.60622288,9.60E-07,0x00
SPI,result,2.60622436,0,0x00
SPI,result,2.60622676,9.60E-07,0x00
SPI,result,2.60622824,0,0x00
SPI,result,2.6062306,0,0x00
SPI,result,2.60623212,9.60E-07,0x00
SPI,result,2.60623448,0,0x00
SPI,result,2.606236,9.60E-07,0x00
SPI,result,2.60623836,0,0x00
SPI,result,2.60623988,9.60E-07,0x00
SPI,result,2.60624224,0,0x00
SPI,result,2.60624376,9.60E-07,0x00
SPI,result,2.60624612,9.60E-07,0x00
SPI,result,2.6062476,0,0x00
SPI,result,2.60625,9.60E-07,0x00
SPI,result,2.60625148,0,0x00
SPI,result,2.60625388,9.60E-07,0x00
SPI,result,2.60625536,0,0x00
SPI,result,2.60625776,9.60E-07,0x00
SPI,result,2.60625924,0,0x00
SPI,result,2.6062616,0,0x00
SPI,result,2.60626312,0,0x00
SPI,result,2.60626548,0,0x00
SPI,result,2.606267,9.60E-07,0x00
SPI,result,2.60626936,0,0x00
SPI,result,2.60627088,9.60E-07,0x00
SPI,result,2.60627324,0,0x00
SPI,result,2.60627476,9.60E-07,0x00
SPI,result,2.60627712,0,0x00
SPI,result,2.60627864,9.60E-07,0x00
SPI,result,2.606281,9.60E-07,0x00
SPI,result,2.60628804,0,0x00
SPI,result,2.60629044,9.60E-07,0x00
SPI,result,2.60629192,0,0x00
SPI,result,2.60629432,9.60E-07,0x00
SPI,result,2.6062958,0,0x00
SPI,result,2.6062982,9.60E-07,0x00
SPI,result,2.60629968,0,0x00
SPI,result,2.60630208,9.60E-07,0x00
SPI,result,2.60630356,0,0x00
SPI,result,2.60630592,0,0x00
SPI,result,2.60630744,0,0x00
SPI,result,2.6063098,0,0x00
SPI,result,2.60631132,9.60E-07,0x00
SPI,result,2.60631368,0,0x00
SPI,result,2.6063152,9.60E-07,0x00
SPI,result,2.60631756,0,0x00
SPI,result,2.60631908,9.60E-07,0x00
SPI,result,2.60632852,9.60E-07,0x00
SPI,result,2.60633,0,0x00
SPI,result,2.60633236,1.00E-06,0x00
SPI,result,2.60633388,0,0x00
SPI,result,2.60633624,0,0x00
SPI,result,2.60633776,9.60E-07,0x00
SPI,result,2.60634012,0,0x00
SPI,result,2.60634164,9.60E-07,0x00
SPI,result,2.606344,0,0x00
SPI,result,2.60634552,9.60E-07,0x00
SPI,result,2.60634788,0,0x00
SPI,result,2.60634936,0,0x00
SPI,result,2.60635176,9.60E-07,0x00
SPI,result,2.60635324,0,0x00
SPI,result,2.60635564,9.60E-07,0x00
SPI,result,2.60635712,0,0x00
SPI,result,2.60635952,9.60E-07,0x00
SPI,result,2.606361,1.00E-06,0x00
SPI,result,2.6063634,9.60E-07,0x00
SPI,result,2.60636488,0,0x00
SPI,result,2.60636724,0,0x00
SPI,result,2.60636876,9.60E-07,0x00
SPI,result,2.60637112,0,0x00
SPI,result,2.60637264,9.60E-07,0x00
SPI,result,2.606375,0,0x00
SPI,result,2.60637652,9.60E-07,0x00
SPI,result,2.60637888,0,0x00
SPI,result,2.6063804,9.60E-07,0x00
SPI,result,2.60638276,0,0x00
SPI,result,2.60638424,1.00E-06,0x00
SPI,result,2.60638664,9.60E-07,0x00
SPI,result,2.60638812,0,0x00
SPI,result,2.60639052,9.60E-07,0x00
SPI,result,2.606392,0,0x00
SPI,result,2.6063944,9.60E-07,0x00
SPI,result,2.60639588,0,0x00
SPI,result,2.60639824,0,0x00
SPI,result,2.60639976,0,0x00
SPI,result,2.60640212,0,0x00
SPI,result,2.60640364,9.60E-07,0x00
SPI,result,2.606406,0,0x00
SPI,result,2.60640752,9.60E-07,0x00
SPI,result,2.60640988,0,0x00
SPI,result,2.6064114,9.60E-07,0x00
SPI,result,2.60641376,0,0x00
SPI,result,2.60641528,9.60E-07,0x00
SPI,result,2.60641764,9.60E-07,0x00
SPI,result,2.60641912,0,0x00
SPI,result,2.60642152,9.60E-07,0x00
SPI,result,2.606423,0,0x00
SPI,result,2.6064254,9.60E-07,0x00
SPI,result,2.60642688,0,0x00
SPI,result,2.60642928,9.60E-07,0x00
SPI,result,2.60643076,0,0x00
SPI,result,2.60643312,0,0x00
SPI,result,2.60643464,0,0x00
SPI,result,2.606437,0,0x00
SPI,result,2.60643852,9.60E-07,0x00
SPI,result,2.60644088,0,0x00
SPI,result,2.6064424,9.60E-07,0x00
SPI,result,2.60644476,0,0x00
SPI,result,2.60644628,9.60E-07,0x00
SPI,result,2.60644864,0,0x00
SPI,result,2.60645016,9.60E-07,0x00
SPI,result,2.60645252,9.60E-07,0x00
SPI,result,2.606454,0,0x00
SPI,result,2.6064564,9.60E-07,0x00
SPI,result,2.60645788,0,0x00
SPI,result,2.60646028,9.60E-07,0x00
SPI,result,2.60646176,0,0x00
SPI,result,2.60646416,9.60E-07,0x00
SPI,result,2.60646564,1.00E-06,0x00
SPI,result,2.606468,0,0x00
SPI,result,2.60646952,9.60E-07,0x00
SPI,result,2.60647188,0,0x00
SPI,result,2.6064734,9.60E-07,0x00
SPI,result,2.60647576,0,0x00
SPI,result,2.60647728,9.60E-07,0x00
SPI,result,2.60647964,0,0x00
SPI,result,2.60648116,9.60E-07,0x00
SPI,result,2.60648352,0,0x00
SPI,result,2.606485,0,0x00
SPI,result,2.6064874,9.60E-07,0x00
SPI,result,2.60648888,1.00E-06,0x00
SPI,result,2.60649128,9.60E-07,0x00
