name,type,start_time,duration,"mosi"
"SPI","result",2.60495472,1e-06,0xAE
"SPI","result",2.60496304,9.6e-07,0xA0
"SPI","result",2.60497136,9.6e-07,0x72
"SPI","result",2.60497968,9.6e-07,0xA1
"SPI","result",2.60498796,1e-06,0x00
"SPI","result",2.60499628,1e-06,0xA2
"SPI","result",2.6050046,1e-06,0x00
"SPI","result",2.60501292,9.6e-07,0xA4
"SPI","result",2.60502124,9.6e-07,0xA8
"SPI","result",2.60502956,9.6e-07,0x3F
"SPI","result",2.60503784,1e-06,0xAD
"SPI","result",2.60504616,9.99999999e-07,0x8E
"SPI","result",2.60505448,1e-06,0xB0
"SPI","result",2.6050628,9.6e-07,0x0B
"SPI","result",2.60507112,9.6e-07,0xB1
"SPI","result",2.60507944,9.6e-07,0x31
"SPI","result",2.60508772,9.99999999e-07,0xB3
"SPI","result",2.60509604,1e-06,0xF0
"SPI","result",2.60510436,1e-06,0x8A
"SPI","result",2.60511268,1e-06,0x64
"SPI","result",2.605121,9.6e-07,0x8B
"SPI","result",2.60512932,9.6e-07,0x78
"SPI","result",2.6051376,1e-06,0x8C
"SPI","result",2.60514592,1e-06,0x64
"SPI","result",2.60515424,1e-06,0xBB
"SPI","result",2.60516256,1e-06,0x3A
"SPI","result",2.60517088,9.6e-07,0xBE
"SPI","result",2.6051792,9.60000001e-07,0x3E
"SPI","result",2.60518748,1e-06,0x87
"SPI","result",2.6051958,1e-06,0x06
"SPI","result",2.60520412,1e-06,0x81
"SPI","result",2.60521244,1e-06,0x91
"SPI","result",2.60522076,9.6e-07,0x82
"SPI","result",2.60522908,9.6e-07,0x50
"SPI","result",2.60523736,1e-06,0x83
"SPI","result",2.60524568,1e-06,0x7D
"SPI","result",2.605254,1e-06,0xAF
"SPI","result",2.60533932,1e-06,0x15
"SPI","result",2.60534764,9.99999999e-07,0x00
"SPI","result",2.60535596,9.6e-07,0x5F
"SPI","result",2.60536428,9.6e-07,0x75
"SPI","result",2.6053726,9.6e-07,0x00
"SPI","result",2.60538088,1e-06,0x3F
"SPI","result",2.60539352,1e-06,0x00
"SPI","result",2.60539504,9.6e-07,0x00
"SPI","result",2.6053974,1e-06,0x00
"SPI","result",2.60539888,1e-06,0x00
"SPI","result",2.60540128,9.6e-07,0x00
"SPI","result",2.60540276,1e-06,0x00
"SPI","result",2.60540516,9.6e-07,0x00
"SPI","result",2.60540664,1e-06,0x00
"SPI","result",2.60540904,9.6e-07,0x00
"SPI","result",2.60541052,1e-06,0x00
"SPI","result",2.60541288,1e-06,0x00
"SPI","result",2.6054144,1e-06,0x00
"SPI","result",2.60541676,1e-06,0x00
"SPI","result",2.60541828,9.6e-07,0x00
"SPI","result",2.60542064,1e-06,0x00
"SPI","result",2.60542216,9.60000001e-07,0x00
"SPI","result",2.60542452,1e-06,0x00
"SPI","result",2.60542604,9.6e-07,0x00
"SPI","result",2.6054284,1e-06,0x00
"SPI","result",2.60542992,9.6e-07,0x00
"SPI","result",2.60543228,9.6e-07,0x00
"SPI","result",2.60543376,1e-06,0x00
"SPI","result",2.60543616,9.6e-07,0x00
"SPI","result",2.60543764,1e-06,0x00
"SPI","result",2.60544004,9.6e-07,0x00
"SPI","result",2.60544152,1e-06,0x00
"SPI","result",2.60544392,9.6e-07,0x00
"SPI","result",2.6054454,1e-06,0x00
"SPI","result",2.60544776,1e-06,0x00
"SPI","result",2.60544928,1e-06,0x00
"SPI","result",2.60545164,1e-06,0x00
"SPI","result",2.60545316,9.6e-07,0x00
"SPI","result",2.60545552,1e-06,0x00
"SPI","result",2.60545704,9.6e-07,0x00
"SPI","result",2.6054594,1e-06,0x00
"SPI","result",2.60546092,9.6e-07,0x00
"SPI","result",2.60546328,1e-06,0x00
"SPI","result",2.6054648,9.6e-07,0x00
"SPI","result",2.60546716,9.6e-07,0x00
"SPI","result",2.60546864,1e-06,0x00
"SPI","result",2.60547104,9.6e-07,0x00
"SPI","result",2.60547252,1e-06,0x00
"SPI","result",2.60547492,9.6e-07,0x00
"SPI","result",2.6054764,1e-06,0x00
"SPI","result",2.6054788,9.6e-07,0x00
"SPI","result",2.60548028,1e-06,0x00
"SPI","result",2.60548264,1e-06,0x00
"SPI","result",2.60548416,9.6e-07,0x00
"SPI","result",2.60548652,1e-06,0x00
"SPI","result",2.60548804,9.6e-07,0x00
"SPI","result",2.6054904,1e-06,0x00
"SPI","result",2.60549192,9.6e-07,0x00
"SPI","result",2.60549428,1e-06,0x00
"SPI","result",2.6054958,9.6e-07,0x00
"SPI","result",2.60549816,1e-06,0x00
"SPI","result",2.60549964,1e-06,0x00
"SPI","result",2.60550204,9.6e-07,0x00
"SPI","result",2.60550352,1e-06,0x00
"SPI","result",2.60550592,9.6e-07,0x00
"SPI","result",2.6055074,1e-06,0x00
"SPI","result",2.6055098,9.6e-07,0x00
"SPI","result",2.60551128,1e-06,0x00
"SPI","result",2.60551364,1e-06,0x00
"SPI","result",2.60551516,1e-06,0x00
"SPI","result",2.60551752,1e-06,0x00
"SPI","result",2.60551904,9.6e-07,0x00
"SPI","result",2.6055214,1e-06,0x00
"SPI","result",2.60552292,9.6e-07,0x00
"SPI","result",2.60552528,1e-06,0x00
"SPI","result",2.6055268,9.60000001e-07,0x00
"SPI","result",2.60552916,1e-06,0x00
"SPI","result",2.60553068,9.6e-07,0x00
"SPI","result",2.60553304,1e-06,0x00
"SPI","result",2.60553452,1e-06,0x00
"SPI","result",2.60553692,9.6e-07,0x00
"SPI","result",2.6055384,1e-06,0x00
"SPI","result",2.6055408,9.6e-07,0x00
"SPI","result",2.60554228,1e-06,0x00
"SPI","result",2.60554468,9.6e-07,0x00
"SPI","result",2.60554616,1e-06,0x00
"SPI","result",2.60554852,1e-06,0x00
"SPI","result",2.60555004,1e-06,0x00
"SPI","result",2.6055524,1e-06,0x00
"SPI","result",2.60555392,9.6e-07,0x00
"SPI","result",2.60555628,1e-06,0x00
"SPI","result",2.6055578,9.6e-07,0x00
"SPI","result",2.60556016,1e-06,0x00
"SPI","result",2.60556168,9.6e-07,0x00
"SPI","result",2.60556404,1e-06,0x00
"SPI","result",2.60556556,9.6e-07,0x00
"SPI","result",2.60556792,9.6e-07,0x00
"SPI","result",2.6055694,1e-06,0x00
"SPI","result",2.6055718,9.6e-07,0x00
"SPI","result",2.60557328,1e-06,0x00
"SPI","result",2.60557568,9.6e-07,0x00
"SPI","result",2.60557716,1e-06,0x00
"SPI","result",2.60557956,9.6e-07,0x00
"SPI","result",2.60558104,1e-06,0x00
"SPI","result",2.6055834,1e-06,0x00
"SPI","result",2.60558492,1e-06,0x00
"SPI","result",2.60558728,1e-06,0x00
"SPI","result",2.6055888,9.6e-07,0x00
"SPI","result",2.60559116,1e-06,0x00
"SPI","result",2.60559268,9.6e-07,0x00
"SPI","result",2.60559504,1e-06,0x00
"SPI","result",2.60559656,9.6e-07,0x00
"SPI","result",2.60559892,1e-06,0x00
"SPI","result",2.60560044,9.6e-07,0x00
"SPI","result",2.6056028,9.6e-07,0x00
"SPI","result",2.60560428,1e-06,0x00
"SPI","result",2.60560668,9.6e-07,0x00
"SPI","result",2.60560816,1e-06,0x00
"SPI","result",2.60561056,9.6e-07,0x00
"SPI","result",2.60561204,1e-06,0x00
"SPI","result",2.60561444,9.6e-07,0x00
"SPI","result",2.60561592,1e-06,0x00
"SPI","result",2.60561828,1e-06,0x00
"SPI","result",2.6056198,9.6e-07,0x00
"SPI","result",2.60562216,1e-06,0x00
"SPI","result",2.60562368,9.6e-07,0x00
"SPI","result",2.60562604,1e-06,0x00
"SPI","result",2.60562756,9.6e-07,0x00
"SPI","result",2.60562992,1e-06,0x00
"SPI","result",2.60563144,9.6e-07,0x00
"SPI","result",2.6056338,1e-06,0x00
"SPI","result",2.60563528,1e-06,0x00
"SPI","result",2.60563768,9.6e-07,0x00
"SPI","result",2.60563916,1e-06,0x00
"SPI","result",2.60564156,9.6e-07,0x00
"SPI","result",2.60564304,1e-06,0x00
"SPI","result",2.60564544,9.6e-07,0x00
"SPI","result",2.60564692,1e-06,0x00
"SPI","result",2.60564932,9.6e-07,0x00
"SPI","result",2.6056508,1e-06,0x00
"SPI","result",2.60565316,1e-06,0x00
"SPI","result",2.60565468,9.6e-07,0x00
"SPI","result",2.60565704,1e-06,0x00
"SPI","result",2.60565856,9.6e-07,0x00
"SPI","result",2.60566092,1e-06,0x00
"SPI","result",2.60566244,9.6e-07,0x00
"SPI","result",2.6056648,1e-06,0x00
"SPI","result",2.60566632,9.6e-07,0x00
"SPI","result",2.60566868,1e-06,0x00
"SPI","result",2.60567016,1e-06,0x00
"SPI","result",2.60567256,9.6e-07,0x00
"SPI","result",2.60567404,1e-06,0x00
"SPI","result",2.60567644,9.6e-07,0x00
"SPI","result",2.60567792,1e-06,0x00
"SPI","result",2.60568032,9.6e-07,0x00
"SPI","result",2.6056818,1e-06,0x00
"SPI","result",2.60568416,1e-06,0x00
"SPI","result",2.60568568,1e-06,0x00
"SPI","result",2.60568804,1e-06,0x00
"SPI","result",2.60568956,9.6e-07,0x00
"SPI","result",2.60569192,1e-06,0x00
"SPI","result",2.60569344,9.6e-07,0x00
"SPI","result",2.6056958,1e-06,0x00
"SPI","result",2.60569732,9.6e-07,0x00
"SPI","result",2.60569968,1e-06,0x00
"SPI","result",2.6057012,9.6e-07,0x00
"SPI","result",2.60570356,9.6e-07,0x00
"SPI","result",2.60570504,1e-06,0x00
"SPI","result",2.60570744,9.6e-07,0x00
"SPI","result",2.60570892,1e-06,0x00
"SPI","result",2.60571132,9.6e-07,0x00
"SPI","result",2.6057128,1e-06,0x00
"SPI","result",2.6057152,9.6e-07,0x00
"SPI","result",2.60571668,1e-06,0x00
"SPI","result",2.60571904,1e-06,0x00
"SPI","result",2.60572056,1e-06,0x00
"SPI","result",2.60572292,1e-06,0x00
"SPI","result",2.60572444,9.6e-07,0x00
"SPI","result",2.6057268,1e-06,0x00
"SPI","result",2.60572832,9.6e-07,0x00
"SPI","result",2.60573068,1e-06,0x00
"SPI","result",2.6057322,9.6e-07,0x00
"SPI","result",2.60573456,9.99999999e-07,0x00
"SPI","result",2.60573608,9.6e-07,0x00
"SPI","result",2.60573844,9.6e-07,0x00
"SPI","result",2.60573992,1e-06,0x00
"SPI","result",2.60574232,9.6e-07,0x00
"SPI","result",2.6057438,1e-06,0x00
"SPI","result",2.6057462,9.6e-07,0x00
"SPI","result",2.60574768,1e-06,0x00
"SPI","result",2.60575008,9.6e-07,0x00
"SPI","result",2.60575156,1e-06,0x00
"SPI","result",2.60575392,1e-06,0x00
"SPI","result",2.60575544,9.6e-07,0x00
"SPI","result",2.6057578,9.99999999e-07,0x00
"SPI","result",2.60575932,9.6e-07,0x00
"SPI","result",2.60576168,1e-06,0x00
"SPI","result",2.6057632,9.6e-07,0x00
"SPI","result",2.60576556,1e-06,0x00
"SPI","result",2.60576708,9.6e-07,0x00
"SPI","result",2.60576944,1e-06,0x00
"SPI","result",2.60577092,1e-06,0x00
"SPI","result",2.60577332,9.6e-07,0x00
"SPI","result",2.6057748,1e-06,0x00
"SPI","result",2.6057772,9.6e-07,0x00
"SPI","result",2.60577868,1e-06,0x00
"SPI","result",2.60578108,9.6e-07,0x00
"SPI","result",2.60578256,1e-06,0x00
"SPI","result",2.60578496,9.6e-07,0x00
"SPI","result",2.60578644,1e-06,0x00
"SPI","result",2.6057888,1e-06,0x00
"SPI","result",2.60579032,9.6e-07,0x00
"SPI","result",2.60579268,1e-06,0x00
"SPI","result",2.6057942,9.6e-07,0x00
"SPI","result",2.60579656,1e-06,0x00
"SPI","result",2.60579808,9.6e-07,0x00
"SPI","result",2.60580044,1e-06,0x00
"SPI","result",2.60580196,9.6e-07,0x00
"SPI","result",2.60580432,1e-06,0x00
"SPI","result",2.6058058,1e-06,0x00
"SPI","result",2.6058082,9.6e-07,0x00
"SPI","result",2.60580968,1e-06,0x00
"SPI","result",2.60581208,9.6e-07,0x00
"SPI","result",2.60581356,1e-06,0x00
"SPI","result",2.60581596,9.6e-07,0x00
"SPI","result",2.60581744,1e-06,0x00
"SPI","result",2.6058198,1e-06,0x00
"SPI","result",2.60582132,1e-06,0x00
"SPI","result",2.60582368,1e-06,0x00
"SPI","result",2.6058252,9.6e-07,0x00
"SPI","result",2.60582756,1e-06,0x00
"SPI","result",2.60582908,9.6e-07,0x00
"SPI","result",2.60583144,1e-06,0x00
"SPI","result",2.60583296,9.6e-07,0x00
"SPI","result",2.60583532,1e-06,0x00
"SPI","result",2.60583684,9.6e-07,0x00
"SPI","result",2.6058392,9.6e-07,0x00
"SPI","result",2.60584068,1e-06,0x00
"SPI","result",2.60584308,9.6e-07,0x00
"SPI","result",2.60584456,1e-06,0x00
"SPI","result",2.60584696,9.6e-07,0x00
"SPI","result",2.60584844,1e-06,0x00
"SPI","result",2.60585084,9.6e-07,0x00
"SPI","result",2.60585232,1e-06,0x00
"SPI","result",2.60585468,1e-06,0x00
"SPI","result",2.6058562,1e-06,0x00
"SPI","result",2.60585856,1e-06,0x00
"SPI","result",2.60586008,9.6e-07,0x00
"SPI","result",2.60586244,9.99999999e-07,0x00
"SPI","result",2.60586396,9.6e-07,0x00
"SPI","result",2.60586632,1e-06,0x00
"SPI","result",2.60586784,9.6e-07,0x00
"SPI","result",2.6058702,1e-06,0x00
"SPI","result",2.60587172,9.6e-07,0x00
"SPI","result",2.60587408,9.6e-07,0x00
"SPI","result",2.60587556,1e-06,0x00
"SPI","result",2.60587796,9.6e-07,0x00
"SPI","result",2.60587944,1e-06,0x00
"SPI","result",2.60588184,9.6e-07,0x00
"SPI","result",2.60588332,1e-06,0x00
"SPI","result",2.60588572,9.6e-07,0x00
"SPI","result",2.6058872,1e-06,0x00
"SPI","result",2.60588956,1e-06,0x00
"SPI","result",2.60589108,9.99999999e-07,0x00
"SPI","result",2.60589344,1e-06,0x00
"SPI","result",2.60589496,9.6e-07,0x00
"SPI","result",2.60589732,1e-06,0x00
"SPI","result",2.60589884,9.6e-07,0x00
"SPI","result",2.6059012,1e-06,0x00
"SPI","result",2.60590272,9.6e-07,0x00
"SPI","result",2.60590508,1e-06,0x00
"SPI","result",2.60590656,1e-06,0x00
"SPI","result",2.60590896,9.6e-07,0x00
"SPI","result",2.60591044,1e-06,0x00
"SPI","result",2.60591284,9.6e-07,0x00
"SPI","result",2.60591432,9.99999999e-07,0x00
"SPI","result",2.60591672,9.6e-07,0x00
"SPI","result",2.6059182,1e-06,0x00
"SPI","result",2.6059206,9.6e-07,0x00
"SPI","result",2.60592208,1e-06,0x00
"SPI","result",2.60592444,1e-06,0x00
"SPI","result",2.60592596,9.6e-07,0x00
"SPI","result",2.60592832,1e-06,0x00
"SPI","result",2.60592984,9.6e-07,0x00
"SPI","result",2.6059322,1e-06,0x00
"SPI","result",2.60593372,9.6e-07,0x00
"SPI","result",2.60593608,9.99999999e-07,0x00
"SPI","result",2.6059376,9.6e-07,0x00
"SPI","result",2.60593996,1e-06,0x00
"SPI","result",2.60594144,1e-06,0x00
"SPI","result",2.60594384,9.6e-07,0x00
"SPI","result",2.60594532,1e-06,0x00
"SPI","result",2.60594772,9.6e-07,0x00
"SPI","result",2.6059492,1e-06,0x00
"SPI","result",2.6059516,9.6e-07,0x00
"SPI","result",2.60595308,1e-06,0x00
"SPI","result",2.60595544,1e-06,0x00
"SPI","result",2.60595696,1e-06,0x00
"SPI","result",2.60595932,9.99999999e-07,0x00
"SPI","result",2.60596084,9.6e-07,0x00
"SPI","result",2.6059632,1e-06,0x00
"SPI","result",2.60596472,9.6e-07,0x00
"SPI","result",2.60596708,1e-06,0x00
"SPI","result",2.6059686,9.6e-07,0x00
"SPI","result",2.60597096,1e-06,0x00
"SPI","result",2.60597248,9.6e-07,0x00
"SPI","result",2.60597484,9.6e-07,0x00
"SPI","result",2.60597632,1e-06,0x00
"SPI","result",2.60597872,9.6e-07,0x00
"SPI","result",2.6059802,1e-06,0x00
"SPI","result",2.6059826,9.6e-07,0x00
"SPI","result",2.60598408,1e-06,0x00
"SPI","result",2.60598648,9.6e-07,0x00
"SPI","result",2.60598796,1e-06,0x00
"SPI","result",2.60599032,1e-06,0x00
"SPI","result",2.60599184,1e-06,0x00
"SPI","result",2.6059942,1e-06,0x00
"SPI","result",2.60599572,9.6e-07,0x00
"SPI","result",2.60599808,1e-06,0x00
"SPI","result",2.6059996,9.6e-07,0x00
"SPI","result",2.60600196,1e-06,0x00
"SPI","result",2.60600348,9.6e-07,0x00
"SPI","result",2.60600584,1e-06,0x00
"SPI","result",2.60600736,9.6e-07,0x00
"SPI","result",2.60600972,9.6e-07,0x00
"SPI","result",2.6060112,9.99999999e-07,0x00
"SPI","result",2.6060136,9.6e-07,0x00
"SPI","result",2.60601508,1e-06,0x00
"SPI","result",2.60601748,9.6e-07,0x00
"SPI","result",2.60601896,9.99999999e-07,0x00
"SPI","result",2.60602136,9.6e-07,0x00
"SPI","result",2.60602284,1e-06,0x00
"SPI","result",2.6060252,1e-06,0x00
"SPI","result",2.60602672,1e-06,0x00
"SPI","result",2.60602908,1e-06,0x00
"SPI","result",2.6060306,9.6e-07,0x00
"SPI","result",2.60603296,1e-06,0x00
"SPI","result",2.60603448,9.6e-07,0x00
"SPI","result",2.60603684,1e-06,0x00
"SPI","result",2.60603836,9.6e-07,0x00
"SPI","result",2.60604072,9.99999999e-07,0x00
"SPI","result",2.60604224,9.6e-07,0x00
"SPI","result",2.6060446,9.6e-07,0x00
"SPI","result",2.60604608,1e-06,0x00
"SPI","result",2.60604848,9.6e-07,0x00
"SPI","result",2.60604996,1e-06,0x00
"SPI","result",2.60605236,9.6e-07,0x00
"SPI","result",2.60605384,1e-06,0x00
"SPI","result",2.60605624,9.6e-07,0x00
"SPI","result",2.60605772,1e-06,0x00
"SPI","result",2.60606008,1e-06,0x00
"SPI","result",2.6060616,1e-06,0x00
"SPI","result",2.60606396,9.99999999e-07,0x00
"SPI","result",2.60606548,9.6e-07,0x00
"SPI","result",2.60606784,1e-06,0x00
"SPI","result",2.60606936,9.6e-07,0x00
"SPI","result",2.60607172,1e-06,0x00
"SPI","result",2.60607324,9.6e-07,0x00
"SPI","result",2.6060756,1e-06,0x00
"SPI","result",2.60607708,1e-06,0x00
"SPI","result",2.60607948,9.6e-07,0x00
"SPI","result",2.60608096,1e-06,0x00
"SPI","result",2.60608336,9.6e-07,0x00
"SPI","result",2.60608484,1e-06,0x00
"SPI","result",2.60608724,9.6e-07,0x00
"SPI","result",2.60608872,1e-06,0x00
"SPI","result",2.60609108,1e-06,0x00
"SPI","result",2.6060926,9.99999999e-07,0x00
"SPI","result",2.60609496,1e-06,0x00
"SPI","result",2.60609648,9.6e-07,0x00
"SPI","result",2.60609884,1e-06,0x00
"SPI","result",2.60610036,9.6e-07,0x00
"SPI","result",2.60610272,1e-06,0x00
"SPI","result",2.60610424,9.6e-07,0x00
"SPI","result",2.6061066,1e-06,0x00
"SPI","result",2.60610812,9.6e-07,0x00
"SPI","result",2.60611048,9.6e-07,0x00
"SPI","result",2.60611196,1e-06,0x00
"SPI","result",2.60611436,9.6e-07,0x00
"SPI","result",2.60611584,9.99999999e-07,0x00
"SPI","result",2.60611824,9.6e-07,0x00
"SPI","result",2.60611972,1e-06,0x00
"SPI","result",2.60612212,9.6e-07,0x00
"SPI","result",2.6061236,1e-06,0x00
"SPI","result",2.60612596,1e-06,0x00
"SPI","result",2.60612748,1e-06,0x00
"SPI","result",2.60612984,1e-06,0x00
"SPI","result",2.60613136,9.6e-07,0x00
"SPI","result",2.60613372,1e-06,0x00
"SPI","result",2.60613524,9.6e-07,0x00
"SPI","result",2.6061376,1e-06,0x00
"SPI","result",2.60613912,9.6e-07,0x00
"SPI","result",2.60614148,1e-06,0x00
"SPI","result",2.606143,9.6e-07,0x00
"SPI","result",2.60614536,9.6e-07,0x00
"SPI","result",2.60614684,1e-06,0x00
"SPI","result",2.60614924,9.6e-07,0x00
"SPI","result",2.60615072,1e-06,0x00
"SPI","result",2.60615312,9.6e-07,0x00
"SPI","result",2.6061546,1e-06,0x00
"SPI","result",2.606157,9.6e-07,0x00
"SPI","result",2.60615848,1e-06,0x00
"SPI","result",2.60616084,1e-06,0x00
"SPI","result",2.60616236,1e-06,0x00
"SPI","result",2.60616472,1e-06,0x00
"SPI","result",2.60616624,9.6e-07,0x00
"SPI","result",2.6061686,1e-06,0x00
"SPI","result",2.60617012,9.6e-07,0x00
"SPI","result",2.60617248,1e-06,0x00
"SPI","result",2.606174,9.6e-07,0x00
"SPI","result",2.60617636,1e-06,0x00
"SPI","result",2.60617788,9.6e-07,0x00
"SPI","result",2.60618024,9.6e-07,0x00
"SPI","result",2.60618172,1e-06,0x00
"SPI","result",2.60618412,9.6e-07,0x00
"SPI","result",2.6061856,1e-06,0x00
"SPI","result",2.606188,9.6e-07,0x00
"SPI","result",2.60618948,1e-06,0x00
"SPI","result",2.60619188,9.6e-07,0x00
"SPI","result",2.60619336,1e-06,0x00
"SPI","result",2.60619572,1e-06,0x00
"SPI","result",2.60619724,9.99999999e-07,0x00
"SPI","result",2.6061996,1e-06,0x00
"SPI","result",2.60620112,9.6e-07,0x00
"SPI","result",2.60620348,1e-06,0x00
"SPI","result",2.606205,9.6e-07,0x00
"SPI","result",2.60620736,1e-06,0x00
"SPI","result",2.60620888,9.6e-07,0x00
"SPI","result",2.60621124,1e-06,0x00
"SPI","result",2.60621272,1e-06,0x00
"SPI","result",2.60621512,9.6e-07,0x00
"SPI","result",2.6062166,1e-06,0x00
"SPI","result",2.606219,9.6e-07,0x00
"SPI","result",2.60622048,1e-06,0x00
"SPI","result",2.60622288,9.6e-07,0x00
"SPI","result",2.60622436,1e-06,0x00
"SPI","result",2.60622676,9.6e-07,0x00
"SPI","result",2.60622824,1e-06,0x00
"SPI","result",2.6062306,1e-06,0x00
"SPI","result",2.60623212,9.6e-07,0x00
"SPI","result",2.60623448,1e-06,0x00
"SPI","result",2.606236,9.6e-07,0x00
"SPI","result",2.60623836,1e-06,0x00
"SPI","result",2.60623988,9.6e-07,0x00
"SPI","result",2.60624224,1e-06,0x00
"SPI","result",2.60624376,9.6e-07,0x00
"SPI","result",2.60624612,9.6e-07,0x00
"SPI","result",2.6062476,1e-06,0x00
"SPI","result",2.60625,9.6e-07,0x00
"SPI","result",2.60625148,1e-06,0x00
"SPI","result",2.60625388,9.6e-07,0x00
"SPI","result",2.60625536,1e-06,0x00
"SPI","result",2.60625776,9.6e-07,0x00
"SPI","result",2.60625924,1e-06,0x00
"SPI","result",2.6062616,1e-06,0x00
"SPI","result",2.60626312,1e-06,0x00
"SPI","result",2.60626548,1e-06,0x00
"SPI","result",2.606267,9.6e-07,0x00
"SPI","result",2.60626936,1e-06,0x00
"SPI","result",2.60627088,9.6e-07,0x00
"SPI","result",2.60627324,1e-06,0x00
"SPI","result",2.60627476,9.6e-07,0x00
"SPI","result",2.60627712,1e-06,0x00
"SPI","result",2.60627864,9.6e-07,0x00
"SPI","result",2.606281,9.6e-07,0x00
"SPI","result",2.60628804,1e-06,0x00
"SPI","result",2.60629044,9.6e-07,0x00
"SPI","result",2.60629192,1e-06,0x00
"SPI","result",2.60629432,9.6e-07,0x00
"SPI","result",2.6062958,1e-06,0x00
"SPI","result",2.6062982,9.6e-07,0x00
"SPI","result",2.60629968,1e-06,0x00
"SPI","result",2.60630208,9.6e-07,0x00
"SPI","result",2.60630356,1e-06,0x00
"SPI","result",2.60630592,1e-06,0x00
"SPI","result",2.60630744,1e-06,0x00
"SPI","result",2.6063098,1e-06,0x00
"SPI","result",2.60631132,9.6e-07,0x00
"SPI","result",2.60631368,1e-06,0x00
"SPI","result",2.6063152,9.6e-07,0x00
"SPI","result",2.60631756,1e-06,0x00
"SPI","result",2.60631908,9.6e-07,0x00
"SPI","result",2.60632852,9.6e-07,0x00
"SPI","result",2.60633,1e-06,0x00
"SPI","result",2.60633236,9.99999999e-07,0x00
"SPI","result",2.60633388,1e-06,0x00
"SPI","result",2.60633624,1e-06,0x00
"SPI","result",2.60633776,9.6e-07,0x00
