name,type,start_time,duration,"mosi"
"SPI","enable",2.204847,3.99999999e-08,
"SPI","disable",2.20485488,3.99999999e-08,
"SPI","enable",2.60495392,3.99999999e-08,
"SPI","result",2.60495472,1e-06,0xAE
"SPI","disable",2.60495704,4.00000004e-08,
"SPI","enable",2.60496224,4.00000004e-08,
"SPI","result",2.60496304,9.6e-07,0xA0
"SPI","disable",2.60496536,3.99999999e-08,
"SPI","enable",2.60497056,4.00000004e-08,
"SPI","result",2.60497136,9.6e-07,0x72
"SPI","disable",2.60497368,3.99999999e-08,
"SPI","enable",2.60497884,4.00000004e-08,
"SPI","result",2.60497968,9.6e-07,0xA1
"SPI","disable",2.60498196,3.99999999e-08,
"SPI","enable",2.60498716,4.00000004e-08,
"SPI","result",2.60498796,1e-06,0x00
"SPI","disable",2.60499028,4.00000004e-08,
"SPI","enable",2.60499548,3.99999999e-08,
"SPI","result",2.60499628,1e-06,0xA2
"SPI","disable",2.6049986,3.99999999e-08,
"SPI","enable",2.6050038,4.00000004e-08,
"SPI","result",2.6050046,1e-06,0x00
"SPI","disable",2.60500692,3.99999994e-08,
"SPI","enable",2.60501212,3.99999999e-08,
"SPI","result",2.60501292,9.6e-07,0xA4
"SPI","disable",2.60501524,3.99999999e-08,
"SPI","enable",2.60502044,3.99999994e-08,
"SPI","result",2.60502124,9.6e-07,0xA8
"SPI","disable",2.60502356,4.00000004e-08,
"SPI","enable",2.60502872,4.00000004e-08,
"SPI","result",2.60502956,9.6e-07,0x3F
"SPI","disable",2.60503184,3.99999999e-08,
"SPI","enable",2.60503704,3.99999994e-08,
"SPI","result",2.60503784,1e-06,0xAD
"SPI","disable",2.60504016,3.99999999e-08,
"SPI","enable",2.60504536,3.99999999e-08,
"SPI","result",2.60504616,9.99999999e-07,0x8E
"SPI","disable",2.60504848,3.99999994e-08,
"SPI","enable",2.60505368,3.99999999e-08,
"SPI","result",2.60505448,1e-06,0xB0
"SPI","disable",2.6050568,4.00000004e-08,
"SPI","enable",2.605062,3.99999994e-08,
"SPI","result",2.6050628,9.6e-07,0x0B
"SPI","disable",2.60506512,4.00000004e-08,
"SPI","enable",2.60507032,4.00000004e-08,
"SPI","result",2.60507112,9.6e-07,0xB1
"SPI","disable",2.60507344,3.99999999e-08,
"SPI","enable",2.6050786,3.99999994e-08,
"SPI","result",2.60507944,9.6e-07,0x31
"SPI","disable",2.60508172,4.00000004e-08,
"SPI","enable",2.60508692,3.99999999e-08,
"SPI","result",2.60508772,9.99999999e-07,0xB3
"SPI","disable",2.60509004,3.99999999e-08,
"SPI","enable",2.60509524,4.00000004e-08,
"SPI","result",2.60509604,1e-06,0xF0
"SPI","disable",2.60509836,4.00000004e-08,
"SPI","enable",2.60510356,3.99999999e-08,
"SPI","result",2.60510436,1e-06,0x8A
"SPI","disable",2.60510668,4.00000004e-08,
"SPI","enable",2.60511188,4.00000004e-08,
"SPI","result",2.60511268,1e-06,0x64
"SPI","disable",2.605115,3.99999994e-08,
"SPI","enable",2.6051202,4.00000004e-08,
"SPI","result",2.605121,9.6e-07,0x8B
"SPI","disable",2.60512332,3.99999999e-08,
"SPI","enable",2.60512848,4.00000004e-08,
"SPI","result",2.60512932,9.6e-07,0x78
"SPI","disable",2.6051316,3.99999999e-08,
"SPI","enable",2.6051368,4.00000004e-08,
"SPI","result",2.6051376,1e-06,0x8C
"SPI","disable",2.60513992,3.99999999e-08,
"SPI","enable",2.60514512,3.99999999e-08,
"SPI","result",2.60514592,1e-06,0x64
"SPI","disable",2.60514824,3.99999999e-08,
"SPI","enable",2.60515344,3.99999999e-08,
"SPI","result",2.60515424,1e-06,0xBB
"SPI","disable",2.60515656,3.99999994e-08,
"SPI","enable",2.60516176,3.99999999e-08,
"SPI","result",2.60516256,1e-06,0x3A
"SPI","disable",2.60516488,4.00000004e-08,
"SPI","enable",2.60517008,3.99999994e-08,
"SPI","result",2.60517088,9.6e-07,0xBE
"SPI","disable",2.6051732,4.00000004e-08,
"SPI","enable",2.60517836,3.99999999e-08,
"SPI","result",2.6051792,9.60000001e-07,0x3E
"SPI","disable",2.60518148,3.99999999e-08,
"SPI","enable",2.60518668,3.99999994e-08,
"SPI","result",2.60518748,1e-06,0x87
"SPI","disable",2.6051898,3.99999999e-08,
"SPI","enable",2.605195,3.99999999e-08,
"SPI","result",2.6051958,1e-06,0x06
"SPI","disable",2.60519812,3.99999999e-08,
"SPI","enable",2.60520332,3.99999999e-08,
"SPI","result",2.60520412,1e-06,0x81
"SPI","disable",2.60520644,4.00000004e-08,
"SPI","enable",2.60521164,3.99999999e-08,
"SPI","result",2.60521244,1e-06,0x91
"SPI","disable",2.60521476,4.00000004e-08,
"SPI","enable",2.60521996,4.00000004e-08,
"SPI","result",2.60522076,9.6e-07,0x82
"SPI","disable",2.60522308,3.99999994e-08,
"SPI","enable",2.60522824,3.99999994e-08,
"SPI","result",2.60522908,9.6e-07,0x50
"SPI","disable",2.60523136,4.00000004e-08,
"SPI","enable",2.60523656,4.00000004e-08,
"SPI","result",2.60523736,1e-06,0x83
"SPI","disable",2.60523968,3.99999999e-08,
"SPI","enable",2.60524488,4.00000004e-08,
"SPI","result",2.60524568,1e-06,0x7D
"SPI","disable",2.605248,4.00000004e-08,
"SPI","enable",2.6052532,3.99999999e-08,
"SPI","result",2.605254,1e-06,0xAF
"SPI","disable",2.60525632,3.99999999e-08,
"SPI","enable",2.60533852,3.99999994e-08,
"SPI","result",2.60533932,1e-06,0x15
"SPI","disable",2.60534164,4.00000004e-08,
"SPI","enable",2.60534684,3.99999999e-08,
"SPI","result",2.60534764,9.99999999e-07,0x00
"SPI","disable",2.60534996,3.99999999e-08,
"SPI","enable",2.60535516,4.00000004e-08,
"SPI","result",2.60535596,9.6e-07,0x5F
"SPI","disable",2.60535828,4.00000004e-08,
"SPI","enable",2.60536348,3.99999999e-08,
"SPI","result",2.60536428,9.6e-07,0x75
"SPI","disable",2.6053666,4.00000004e-08,
"SPI","enable",2.60537176,3.99999999e-08,
"SPI","result",2.6053726,9.6e-07,0x00
"SPI","disable",2.60537488,4.00000004e-08,
"SPI","enable",2.60538008,3.99999994e-08,
"SPI","result",2.60538088,1e-06,0x3F
"SPI","disable",2.6053832,4.00000004e-08,
"SPI","enable",2.62941816,3.99999999e-08,
"SPI","result",2.62941896,1e-06,0x15
"SPI","disable",2.62942128,3.99999999e-08,
"SPI","enable",2.62942648,4.00000004e-08,
"SPI","result",2.62942728,1e-06,0x00
"SPI","disable",2.6294296,4.00000004e-08,
"SPI","enable",2.6294348,3.99999999e-08,
"SPI","result",2.6294356,1e-06,0x00
"SPI","disable",2.62943792,4.00000004e-08,
"SPI","enable",2.62944312,4.00000004e-08,
"SPI","result",2.62944392,9.6e-07,0x75
"SPI","disable",2.62944624,3.99999994e-08,
"SPI","enable",2.62945144,4.00000004e-08,
"SPI","result",2.62945224,9.6e-07,0x02
"SPI","disable",2.62945456,3.99999999e-08,
"SPI","enable",2.62945972,4.00000004e-08,
"SPI","result",2.62946056,9.6e-07,0x02
"SPI","disable",2.62946284,3.99999999e-08,
"SPI","enable",2.62949168,3.99999999e-08,
"SPI","result",2.62949248,9.99999999e-07,0x15
"SPI","disable",2.6294948,3.99999999e-08,
"SPI","enable",2.6295,3.99999999e-08,
"SPI","result",2.6295008,9.6e-07,0x00
"SPI","disable",2.62950312,4.00000004e-08,
"SPI","enable",2.62950832,3.99999999e-08,
"SPI","result",2.62950912,9.6e-07,0x00
"SPI","disable",2.62951144,4.00000004e-08,
"SPI","enable",2.6295166,3.99999999e-08,
"SPI","result",2.62951744,9.6e-07,0x75
"SPI","disable",2.62951972,4.00000004e-08,
"SPI","enable",2.62952492,3.99999994e-08,
"SPI","result",2.62952572,1e-06,0x04
"SPI","disable",2.62952804,4.00000004e-08,
"SPI","enable",2.62953324,3.99999999e-08,
"SPI","result",2.62953404,1e-06,0x04
"SPI","disable",2.62953636,3.99999999e-08,
"SPI","enable",2.62957476,3.99999999e-08,
"SPI","result",2.62957556,9.6e-07,0x15
"SPI","disable",2.62957788,4.00000004e-08,
"SPI","enable",2.62958308,3.99999994e-08,
"SPI","result",2.62958388,9.6e-07,0x01
"SPI","disable",2.6295862,4.00000004e-08,
"SPI","enable",2.62959136,3.99999999e-08,
"SPI","result",2.6295922,9.6e-07,0x01
"SPI","disable",2.62959448,3.99999999e-08,
"SPI","enable",2.62959968,3.99999994e-08,
"SPI","result",2.62960048,1e-06,0x75
"SPI","disable",2.6296028,4.00000004e-08,
"SPI","enable",2.629608,3.99999999e-08,
"SPI","result",2.6296088,1e-06,0x00
"SPI","disable",2.62961112,3.99999999e-08,
"SPI","enable",2.62961632,4.00000004e-08,
"SPI","result",2.62961712,1e-06,0x00
"SPI","disable",2.62961944,4.00000004e-08,
"SPI","enable",2.6296448,3.99999999e-08,
"SPI","result",2.62964564,9.6e-07,0x15
"SPI","disable",2.62964792,3.99999999e-08,
"SPI","enable",2.62965312,4.00000004e-08,
"SPI","result",2.62965392,1e-06,0x01
"SPI","disable",2.62965624,3.99999994e-08,
"SPI","enable",2.62966144,4.00000004e-08,
"SPI","result",2.62966224,1e-06,0x01
"SPI","disable",2.62966456,3.99999999e-08,
"SPI","enable",2.62966976,3.99999994e-08,
"SPI","result",2.62967056,1e-06,0x75
"SPI","disable",2.62967288,3.99999999e-08,
"SPI","enable",2.62967808,3.99999999e-08,
"SPI","result",2.62967888,9.99999999e-07,0x01
"SPI","disable",2.6296812,3.99999999e-08,
"SPI","enable",2.6296864,3.99999999e-08,
"SPI","result",2.6296872,9.6e-07,0x01
"SPI","disable",2.62968952,4.00000004e-08,
"SPI","enable",2.62971488,3.99999999e-08,
"SPI","result",2.62971568,1e-06,0x15
"SPI","disable",2.629718,4.00000004e-08,
"SPI","enable",2.6297232,4.00000004e-08,
"SPI","result",2.629724,1e-06,0x01
"SPI","disable",2.62972632,3.99999994e-08,
"SPI","enable",2.62973152,4.00000004e-08,
"SPI","result",2.62973232,1e-06,0x01
"SPI","disable",2.62973464,3.99999999e-08,
"SPI","enable",2.62973984,3.99999994e-08,
"SPI","result",2.62974064,9.6e-07,0x75
"SPI","disable",2.62974296,3.99999999e-08,
"SPI","enable",2.62974816,3.99999999e-08,
"SPI","result",2.62974896,9.6e-07,0x02
"SPI","disable",2.62975128,3.99999999e-08,
"SPI","enable",2.62975644,3.99999999e-08,
"SPI","result",2.62975728,9.6e-07,0x02
"SPI","disable",2.62975956,3.99999999e-08,
"SPI","enable",2.62978496,3.99999999e-08,
"SPI","result",2.62978576,1e-06,0x15
"SPI","disable",2.62978808,4.00000004e-08,
"SPI","enable",2.62979328,4.00000004e-08,
"SPI","result",2.62979408,1e-06,0x01
"SPI","disable",2.6297964,3.99999994e-08,
"SPI","enable",2.6298016,4.00000004e-08,
"SPI","result",2.6298024,9.6e-07,0x01
"SPI","disable",2.62980472,3.99999999e-08,
"SPI","enable",2.62980988,4.00000004e-08,
"SPI","result",2.62981072,9.6e-07,0x75
"SPI","disable",2.629813,3.99999999e-08,
"SPI","enable",2.6298182,4.00000004e-08,
"SPI","result",2.629819,1e-06,0x03
"SPI","disable",2.62982132,4.00000004e-08,
"SPI","enable",2.62982652,3.99999999e-08,
"SPI","result",2.62982732,1e-06,0x03
"SPI","disable",2.62982964,3.99999999e-08,
"SPI","enable",2.62986108,3.99999999e-08,
"SPI","result",2.62986188,1e-06,0x15
"SPI","disable",2.6298642,3.99999999e-08,
"SPI","enable",2.6298694,3.99999999e-08,
"SPI","result",2.6298702,1e-06,0x01
"SPI","disable",2.62987252,3.99999994e-08,
"SPI","enable",2.62987772,3.99999999e-08,
"SPI","result",2.62987852,1e-06,0x01
"SPI","disable",2.62988084,3.99999999e-08,
"SPI","enable",2.62988604,3.99999994e-08,
"SPI","result",2.62988684,1e-06,0x75
"SPI","disable",2.62988916,4.00000004e-08,
"SPI","enable",2.62989436,3.99999999e-08,
"SPI","result",2.62989516,9.60000001e-07,0x04
"SPI","disable",2.62989748,3.99999999e-08,
"SPI","enable",2.62990268,4.00000004e-08,
"SPI","result",2.62990348,9.6e-07,0x04
"SPI","disable",2.62990576,3.99999999e-08,
"SPI","enable",2.62993116,3.99999999e-08,
"SPI","result",2.62993196,1e-06,0x15
"SPI","disable",2.62993428,3.99999999e-08,
"SPI","enable",2.62993948,4.00000004e-08,
"SPI","result",2.62994028,1e-06,0x01
"SPI","disable",2.6299426,3.99999994e-08,
"SPI","enable",2.6299478,3.99999999e-08,
"SPI","result",2.6299486,9.6e-07,0x01
"SPI","disable",2.62995092,3.99999999e-08,
"SPI","enable",2.62995612,3.99999994e-08,
"SPI","result",2.62995692,9.6e-07,0x75
"SPI","disable",2.62995924,4.00000004e-08,
"SPI","enable",2.6299644,4.00000004e-08,
"SPI","result",2.62996524,9.6e-07,0x05
"SPI","disable",2.62996752,3.99999999e-08,
"SPI","enable",2.62997272,3.99999994e-08,
"SPI","result",2.62997352,1e-06,0x05
"SPI","disable",2.62997584,3.99999999e-08,
"SPI","enable",2.63000124,3.99999999e-08,
"SPI","result",2.63000204,1e-06,0x15
"SPI","disable",2.63000436,3.99999999e-08,
"SPI","enable",2.63000956,4.00000004e-08,
"SPI","result",2.63001036,9.6e-07,0x01
"SPI","disable",2.63001268,3.99999994e-08,
"SPI","enable",2.63001788,3.99999999e-08,
"SPI","result",2.63001868,9.6e-07,0x01
"SPI","disable",2.63002096,4.00000004e-08,
"SPI","enable",2.63002616,4.00000004e-08,
"SPI","result",2.630027,9.6e-07,0x75
"SPI","disable",2.63002928,3.99999994e-08,
"SPI","enable",2.63003448,4.00000004e-08,
"SPI","result",2.63003528,1e-06,0x06
"SPI","disable",2.6300376,3.99999999e-08,
"SPI","enable",2.6300428,3.99999999e-08,
"SPI","result",2.6300436,1e-06,0x06
"SPI","disable",2.63004592,3.99999999e-08,
"SPI","enable",2.63008432,4.00000004e-08,
"SPI","result",2.63008512,9.6e-07,0x15
"SPI","disable",2.63008744,3.99999994e-08,
"SPI","enable",2.6300926,3.99999999e-08,
"SPI","result",2.63009344,9.6e-07,0x02
"SPI","disable",2.63009572,4.00000004e-08,
"SPI","enable",2.63010092,4.00000004e-08,
"SPI","result",2.63010172,1e-06,0x02
"SPI","disable",2.63010404,3.99999999e-08,
"SPI","enable",2.63010924,4.00000004e-08,
"SPI","result",2.63011004,1e-06,0x75
"SPI","disable",2.63011236,3.99999999e-08,
"SPI","enable",2.63011756,3.99999999e-08,
"SPI","result",2.63011836,1e-06,0x02
"SPI","disable",2.63012068,3.99999999e-08,
"SPI","enable",2.63012588,3.99999999e-08,
"SPI","result",2.63012668,1e-06,0x02
"SPI","disable",2.630129,3.99999994e-08,
"SPI","enable",2.6301578,3.99999999e-08,
"SPI","result",2.63015864,9.6e-07,0x15
"SPI","disable",2.63016092,4.00000004e-08,
"SPI","enable",2.63016612,3.99999994e-08,
"SPI","result",2.63016692,1e-06,0x02
"SPI","disable",2.63016924,4.00000004e-08,
"SPI","enable",2.63017444,4.00000004e-08,
"SPI","result",2.63017524,1e-06,0x02
"SPI","disable",2.63017756,3.99999999e-08,
"SPI","enable",2.63018276,4.00000004e-08,
"SPI","result",2.63018356,1e-06,0x75
"SPI","disable",2.63018588,4.00000004e-08,
"SPI","enable",2.63019108,3.99999999e-08,
"SPI","result",2.63019188,9.6e-07,0x04
"SPI","disable",2.6301942,3.99999999e-08,
"SPI","enable",2.6301994,4.00000004e-08,
"SPI","result",2.6302002,9.6e-07,0x04
"SPI","disable",2.63020252,3.99999994e-08,
"SPI","enable",2.63024088,3.99999994e-08,
"SPI","result",2.63024168,1e-06,0x15
"SPI","disable",2.630244,4.00000004e-08,
"SPI","enable",2.6302492,3.99999999e-08,
"SPI","result",2.63025,1e-06,0x03
"SPI","disable",2.63025232,3.99999999e-08,
"SPI","enable",2.63025752,4.00000004e-08,
"SPI","result",2.63025832,1e-06,0x03
"SPI","disable",2.63026064,4.00000004e-08,
"SPI","enable",2.63026584,3.99999999e-08,
"SPI","result",2.63026664,9.6e-07,0x75
"SPI","disable",2.63026896,4.00000004e-08,
"SPI","enable",2.63027412,3.99999999e-08,
"SPI","result",2.63027496,9.6e-07,0x00
"SPI","disable",2.63027724,4.00000004e-08,
"SPI","enable",2.63028244,3.99999994e-08,
"SPI","result",2.63028324,1e-06,0x00
"SPI","disable",2.63028556,4.00000004e-08,
"SPI","enable",2.63031096,3.99999994e-08,
"SPI","result",2.63031176,1e-06,0x15
"SPI","disable",2.63031408,3.99999999e-08,
"SPI","enable",2.63031928,3.99999999e-08,
"SPI","result",2.63032008,9.6e-07,0x03
"SPI","disable",2.6303224,3.99999999e-08,
"SPI","enable",2.6303276,3.99999999e-08,
"SPI","result",2.6303284,9.6e-07,0x03
"SPI","disable",2.63033072,4.00000004e-08,
"SPI","enable",2.63033588,3.99999999e-08,
"SPI","result",2.63033672,9.6e-07,0x75
"SPI","disable",2.630339,3.99999994e-08,
"SPI","enable",2.6303442,3.99999999e-08,
"SPI","result",2.630345,1e-06,0x01
"SPI","disable",2.63034732,4.00000004e-08,
"SPI","enable",2.63035252,3.99999994e-08,
"SPI","result",2.63035332,1e-06,0x01
"SPI","disable",2.63035564,4.00000004e-08,
"SPI","enable",2.63038104,3.99999994e-08,
"SPI","result",2.63038184,9.6e-07,0x15
"SPI","disable",2.63038416,3.99999999e-08,
"SPI","enable",2.63038932,4.00000004e-08,
"SPI","result",2.63039016,9.6e-07,0x03
"SPI","disable",2.63039244,3.99999999e-08,
"SPI","enable",2.63039764,3.99999999e-08,
"SPI","result",2.63039848,9.6e-07,0x03
"SPI","disable",2.63040076,3.99999999e-08,
"SPI","enable",2.63040596,3.99999999e-08,
"SPI","result",2.63040676,1e-06,0x75
"SPI","disable",2.63040908,3.99999994e-08,
"SPI","enable",2.63041428,3.99999999e-08,
"SPI","result",2.63041508,1e-06,0x02
"SPI","disable",2.6304174,4.00000004e-08,
"SPI","enable",2.6304226,3.99999994e-08,
"SPI","result",2.6304234,1e-06,0x02
"SPI","disable",2.63042572,4.00000004e-08,
"SPI","enable",2.63045108,4.00000004e-08,
"SPI","result",2.63045192,9.6e-07,0x15
"SPI","disable",2.6304542,3.99999999e-08,
"SPI","enable",2.6304594,4.00000004e-08,
"SPI","result",2.6304602,1e-06,0x03
"SPI","disable",2.63046252,3.99999999e-08,
"SPI","enable",2.63046772,3.99999999e-08,
"SPI","result",2.63046852,1e-06,0x03
"SPI","disable",2.63047084,3.99999999e-08,
"SPI","enable",2.63047604,4.00000004e-08,
"SPI","result",2.63047684,1e-06,0x75
"SPI","disable",2.63047916,3.99999994e-08,
"SPI","enable",2.63048436,3.99999999e-08,
"SPI","result",2.63048516,1e-06,0x03
"SPI","disable",2.63048748,3.99999999e-08,
"SPI","enable",2.63049268,3.99999994e-08,
"SPI","result",2.63049348,9.6e-07,0x03
"SPI","disable",2.6304958,4.00000004e-08,
"SPI","enable",2.63052116,4.00000004e-08,
"SPI","result",2.63052196,1e-06,0x15
"SPI","disable",2.63052428,3.99999999e-08,
"SPI","enable",2.63052948,4.00000004e-08,
"SPI","result",2.63053028,1e-06,0x03
"SPI","disable",2.6305326,4.00000004e-08,
"SPI","enable",2.6305378,3.99999999e-08,
"SPI","result",2.6305386,1e-06,0x03
"SPI","disable",2.63054092,3.99999999e-08,
"SPI","enable",2.63054612,4.00000004e-08,
"SPI","result",2.63054692,9.6e-07,0x75
"SPI","disable",2.63054924,3.99999994e-08,
"SPI","enable",2.63055444,3.99999999e-08,
"SPI","result",2.63055524,9.6e-07,0x04
"SPI","disable",2.63055752,4.00000004e-08,
"SPI","enable",2.63056272,4.00000004e-08,
"SPI","result",2.63056356,9.6e-07,0x04
"SPI","disable",2.63056584,3.99999994e-08,
"SPI","enable",2.63059124,3.99999999e-08,
"SPI","result",2.63059204,1e-06,0x15
"SPI","disable",2.63059436,3.99999999e-08,
"SPI","enable",2.63059956,4.00000004e-08,
"SPI","result",2.63060036,1e-06,0x03
"SPI","disable",2.63060268,4.00000004e-08,
"SPI","enable",2.63060788,3.99999999e-08,
"SPI","result",2.63060868,9.6e-07,0x03
"SPI","disable",2.630611,3.99999999e-08,
"SPI","enable",2.63061616,3.99999999e-08,
"SPI","result",2.630617,9.6e-07,0x75
"SPI","disable",2.63061928,4.00000004e-08,
"SPI","enable",2.63062448,3.99999999e-08,
"SPI","result",2.63062528,1e-06,0x05
"SPI","disable",2.6306276,4.00000004e-08,
"SPI","enable",2.6306328,4.00000004e-08,
"SPI","result",2.6306336,1e-06,0x05
"SPI","disable",2.63063592,3.99999999e-08,
"SPI","enable",2.63066132,3.99999999e-08,
"SPI","result",2.63066212,9.6e-07,0x15
"SPI","disable",2.63066444,3.99999999e-08,
"SPI","enable",2.63066964,4.00000004e-08,
"SPI","result",2.63067044,9.6e-07,0x03
"SPI","disable",2.63067276,4.00000004e-08,
"SPI","enable",2.63067792,3.99999999e-08,
"SPI","result",2.63067876,9.6e-07,0x03
"SPI","disable",2.63068104,3.99999999e-08,
"SPI","enable",2.63068624,3.99999999e-08,
"SPI","result",2.63068704,1e-06,0x75
"SPI","disable",2.63068936,4.00000004e-08,
"SPI","enable",2.63069456,3.99999999e-08,
"SPI","result",2.63069536,1e-06,0x06
"SPI","disable",2.63069768,4.00000004e-08,
"SPI","enable",2.63070288,4.00000004e-08,
"SPI","result",2.63070368,1e-06,0x06
"SPI","disable",2.630706,3.99999999e-08,
"SPI","enable",2.63074436,3.99999999e-08,
"SPI","result",2.6307452,9.6e-07,0x15
"SPI","disable",2.63074748,3.99999999e-08,
"SPI","enable",2.63075268,3.99999999e-08,
"SPI","result",2.63075348,9.99999999e-07,0x04
"SPI","disable",2.6307558,3.99999994e-08,
"SPI","enable",2.630761,3.99999999e-08,
"SPI","result",2.6307618,1e-06,0x04
"SPI","disable",2.63076412,4.00000004e-08,
"SPI","enable",2.63076932,3.99999994e-08,
"SPI","result",2.63077012,1e-06,0x75
"SPI","disable",2.63077244,4.00000004e-08,
"SPI","enable",2.63077764,4.00000004e-08,
"SPI","result",2.63077844,1e-06,0x02
"SPI","disable",2.63078076,3.99999999e-08,
"SPI","enable",2.63078596,4.00000004e-08,
"SPI","result",2.63078676,9.6e-07,0x02
"SPI","disable",2.63078908,4.00000004e-08,
"SPI","enable",2.63081788,3.99999999e-08,
"SPI","result",2.63081868,1e-06,0x15
"SPI","disable",2.630821,3.99999999e-08,
"SPI","enable",2.6308262,4.00000004e-08,
"SPI","result",2.630827,1e-06,0x04
"SPI","disable",2.63082932,3.99999994e-08,
"SPI","enable",2.63083452,3.99999999e-08,
"SPI","result",2.63083532,1e-06,0x04
"SPI","disable",2.63083764,3.99999999e-08,
"SPI","enable",2.63084284,3.99999994e-08,
"SPI","result",2.63084364,9.6e-07,0x75
"SPI","disable",2.63084596,4.00000004e-08,
"SPI","enable",2.63085116,3.99999999e-08,
"SPI","result",2.63085196,9.6e-07,0x04
"SPI","disable",2.63085428,3.99999999e-08,
"SPI","enable",2.63085944,3.99999994e-08,
"SPI","result",2.63086028,9.6e-07,0x04
"SPI","disable",2.63086764,4.00000004e-08,
"SPI","enable",2.63094352,3.99999999e-08,
"SPI","result",2.63094432,1e-06,0x15
"SPI","disable",2.63094664,3.99999999e-08,
"SPI","enable",2.63095184,4.00000004e-08,
"SPI","result",2.63095264,1e-06,0x06
"SPI","disable",2.63095496,3.99999999e-08,
"SPI","enable",2.63096016,3.99999999e-08,
"SPI","result",2.63096096,1e-06,0x06
"SPI","disable",2.63096328,4.00000004e-08,
"SPI","enable",2.63096848,4.00000004e-08,
"SPI","result",2.63096928,9.6e-07,0x75
"SPI","disable",2.6309716,3.99999999e-08,
"SPI","enable",2.6309768,4.00000004e-08,
"SPI","result",2.6309776,9.6e-07,0x02
"SPI","disable",2.63097988,4.00000004e-08,
"SPI","enable",2.63098508,4.00000004e-08,
"SPI","result",2.63098592,9.6e-07,0x02
"SPI","disable",2.6309882,4.00000004e-08,
"SPI","enable",2.63101704,3.99999999e-08,
"SPI","result",2.63101784,1e-06,0x15
"SPI","disable",2.63102016,3.99999999e-08,
"SPI","enable",2.63102536,3.99999999e-08,
"SPI","result",2.63102616,9.6e-07,0x06
"SPI","disable",2.63102848,4.00000004e-08,
"SPI","enable",2.63103368,3.99999999e-08,
"SPI","result",2.63103448,9.6e-07,0x06
"SPI","disable",2.6310368,4.00000004e-08,
"SPI","enable",2.63104196,3.99999999e-08,
"SPI","result",2.6310428,9.6e-07,0x75
"SPI","disable",2.63104508,4.00000004e-08,
"SPI","enable",2.63105028,3.99999994e-08,
"SPI","result",2.63105108,1e-06,0x04
"SPI","disable",2.6310534,4.00000004e-08,
"SPI","enable",2.6310586,4.00000004e-08,
"SPI","result",2.6310594,1e-06,0x04
"SPI","disable",2.63106172,3.99999999e-08,
"SPI","enable",2.63110012,3.99999999e-08,
"SPI","result",2.63110092,9.6e-07,0x15
"SPI","disable",2.63110324,4.00000004e-08,
"SPI","enable",2.63110844,3.99999994e-08,
"SPI","result",2.63110924,9.6e-07,0x07
"SPI","disable",2.63111152,3.99999999e-08,
"SPI","enable",2.63111672,3.99999999e-08,
"SPI","result",2.63111756,9.6e-07,0x07
"SPI","disable",2.63111984,3.99999999e-08,
"SPI","enable",2.63112504,3.99999994e-08,
"SPI","result",2.63112584,1e-06,0x75
"SPI","disable",2.63112816,4.00000004e-08,
"SPI","enable",2.63113336,3.99999999e-08,
"SPI","result",2.63113416,1e-06,0x00
"SPI","disable",2.63113648,4.00000004e-08,
"SPI","enable",2.63114168,4.00000004e-08,
"SPI","result",2.63114248,1e-06,0x00
"SPI","disable",2.6311448,3.99999999e-08,
"SPI","enable",2.63117016,3.99999999e-08,
"SPI","result",2.631171,9.6e-07,0x15
"SPI","disable",2.63117328,3.99999999e-08,
"SPI","enable",2.63117848,4.00000004e-08,
"SPI","result",2.63117928,1e-06,0x07
"SPI","disable",2.6311816,3.99999994e-08,
"SPI","enable",2.6311868,3.99999999e-08,
"SPI","result",2.6311876,1e-06,0x07
"SPI","disable",2.63118992,3.99999999e-08,
"SPI","enable",2.63119512,3.99999994e-08,
"SPI","result",2.63119592,1e-06,0x75
"SPI","disable",2.63119824,4.00000004e-08,
"SPI","enable",2.63120344,3.99999999e-08,
"SPI","result",2.63120424,1e-06,0x01
"SPI","disable",2.63120656,3.99999999e-08,
"SPI","enable",2.63121176,4.00000004e-08,
"SPI","result",2.63121256,9.6e-07,0x01
"SPI","disable",2.63121488,4.00000004e-08,
"SPI","enable",2.63124024,3.99999999e-08,
"SPI","result",2.63124104,1e-06,0x15
"SPI","disable",2.63124336,3.99999999e-08,
"SPI","enable",2.63124856,4.00000004e-08,
"SPI","result",2.63124936,1e-06,0x07
"SPI","disable",2.63125168,3.99999994e-08,
"SPI","enable",2.63125688,4.00000004e-08,
"SPI","result",2.63125768,1e-06,0x07
"SPI","disable",2.63126,3.99999999e-08,
"SPI","enable",2.6312652,3.99999994e-08,
"SPI","result",2.631266,9.6e-07,0x75
"SPI","disable",2.63126832,3.99999999e-08,
"SPI","enable",2.63127352,3.99999999e-08,
"SPI","result",2.63127432,9.6e-07,0x02
"SPI","disable",2.63127664,3.99999999e-08,
"SPI","enable",2.6312818,3.99999999e-08,
"SPI","result",2.63128264,9.6e-07,0x02
"SPI","disable",2.63128492,3.99999999e-08,
"SPI","enable",2.63131032,3.99999999e-08,
"SPI","result",2.63131112,1e-06,0x15
"SPI","disable",2.63131344,4.00000004e-08,
"SPI","enable",2.63131864,4.00000004e-08,
"SPI","result",2.63131944,1e-06,0x07
"SPI","disable",2.63132176,3.99999994e-08,
"SPI","enable",2.63132696,4.00000004e-08,
"SPI","result",2.63132776,9.6e-07,0x07
"SPI","disable",2.63133008,3.99999999e-08,
"SPI","enable",2.63133524,4.00000004e-08,
"SPI","result",2.63133608,9.6e-07,0x75
"SPI","disable",2.63133836,3.99999999e-08,
"SPI","enable",2.63134356,4.00000004e-08,
"SPI","result",2.63134436,1e-06,0x03
"SPI","disable",2.63134668,3.99999999e-08,
"SPI","enable",2.63135188,3.99999999e-08,
"SPI","result",2.63135268,1e-06,0x03
"SPI","disable",2.631355,3.99999999e-08,
"SPI","enable",2.6313804,3.99999999e-08,
"SPI","result",2.6313812,9.6e-07,0x15
"SPI","disable",2.63138352,4.00000004e-08,
"SPI","enable",2.63138872,4.00000004e-08,
"SPI","result",2.63138952,9.6e-07,0x07
"SPI","disable",2.63139184,3.99999994e-08,
"SPI","enable",2.631397,3.99999994e-08,
"SPI","result",2.63139784,9.6e-07,0x07
"SPI","disable",2.63140012,4.00000004e-08,
"SPI","enable",2.63140532,4.00000004e-08,
"SPI","result",2.63140612,1e-06,0x75
"SPI","disable",2.63140844,3.99999999e-08,
"SPI","enable",2.63141364,4.00000004e-08,
"SPI","result",2.63141444,1e-06,0x04
"SPI","disable",2.63141676,3.99999999e-08,
"SPI","enable",2.63142196,3.99999999e-08,
"SPI","result",2.63142276,1e-06,0x04
"SPI","disable",2.63142508,3.99999999e-08,
"SPI","enable",2.63145044,3.99999999e-08,
"SPI","result",2.63145128,9.6e-07,0x15
"SPI","disable",2.63145356,3.99999994e-08,
"SPI","enable",2.63145876,3.99999999e-08,
"SPI","result",2.63145956,1e-06,0x07
"SPI","disable",2.63146188,4.00000004e-08,
"SPI","enable",2.63146708,3.99999994e-08,
"SPI","result",2.63146788,1e-06,0x07
"SPI","disable",2.6314702,4.00000004e-08,
"SPI","enable",2.6314754,4.00000004e-08,
"SPI","result",2.6314762,1e-06,0x75
"SPI","disable",2.63147852,3.99999999e-08,
"SPI","enable",2.63148372,4.00000004e-08,
"SPI","result",2.63148452,1e-06,0x05
"SPI","disable",2.63148684,4.00000004e-08,
"SPI","enable",2.63149204,3.99999999e-08,
"SPI","result",2.63149284,9.6e-07,0x05
"SPI","disable",2.63149516,3.99999999e-08,
"SPI","enable",2.63152052,3.99999999e-08,
"SPI","result",2.63152132,1e-06,0x15
"SPI","disable",2.63152364,3.99999994e-08,
"SPI","enable",2.63152884,3.99999999e-08,
"SPI","result",2.63152964,1e-06,0x07
"SPI","disable",2.63153196,4.00000004e-08,
"SPI","enable",2.63153716,3.99999994e-08,
"SPI","result",2.63153796,1e-06,0x07
"SPI","disable",2.63154028,4.00000004e-08,
"SPI","enable",2.63154548,3.99999999e-08,
"SPI","result",2.63154628,1e-06,0x75
"SPI","disable",2.6315486,3.99999999e-08,
"SPI","enable",2.6315538,4.00000004e-08,
"SPI","result",2.6315546,9.6e-07,0x06
"SPI","disable",2.63155692,4.00000004e-08,
"SPI","enable",2.63156208,3.99999999e-08,
"SPI","result",2.63156292,9.6e-07,0x06
"SPI","disable",2.6315652,3.99999999e-08,
"SPI","enable",2.6316036,3.99999999e-08,
"SPI","result",2.6316044,1e-06,0x15
"SPI","disable",2.63160672,3.99999999e-08,
"SPI","enable",2.63161192,3.99999994e-08,
"SPI","result",2.63161272,1e-06,0x08
"SPI","disable",2.63161504,4.00000004e-08,
"SPI","enable",2.63162024,3.99999999e-08,
"SPI","result",2.63162104,9.6e-07,0x08
"SPI","disable",2.63162336,3.99999999e-08,
"SPI","enable",2.63162856,4.00000004e-08,
"SPI","result",2.63162936,9.6e-07,0x75
"SPI","disable",2.63163168,4.00000004e-08,
"SPI","enable",2.63163684,3.99999999e-08,
"SPI","result",2.63163768,9.6e-07,0x02
"SPI","disable",2.63163996,3.99999999e-08,
"SPI","enable",2.63164516,3.99999999e-08,
"SPI","result",2.63164596,1e-06,0x02
"SPI","disable",2.63164828,4.00000004e-08,
"SPI","enable",2.63167712,4.00000004e-08,
"SPI","result",2.63167792,9.6e-07,0x15
"SPI","disable",2.63168024,3.99999999e-08,
"SPI","enable",2.63168544,3.99999994e-08,
"SPI","result",2.63168624,9.6e-07,0x08
"SPI","disable",2.63168856,3.99999999e-08,
"SPI","enable",2.63169372,4.00000004e-08,
"SPI","result",2.63169456,9.6e-07,0x08
"SPI","disable",2.63169684,3.99999999e-08,
"SPI","enable",2.63170204,3.99999999e-08,
"SPI","result",2.63170284,1e-06,0x75
"SPI","disable",2.63170516,3.99999999e-08,
"SPI","enable",2.63171036,3.99999999e-08,
"SPI","result",2.63171116,1e-06,0x04
"SPI","disable",2.63171348,3.99999994e-08,
"SPI","enable",2.63171868,3.99999999e-08,
"SPI","result",2.63171948,1e-06,0x04
"SPI","disable",2.6317218,3.99999999e-08,
"SPI","enable",2.6317602,3.99999999e-08,
"SPI","result",2.631761,9.6e-07,0x15
"SPI","disable",2.63176332,3.99999999e-08,
"SPI","enable",2.63176848,4.00000004e-08,
"SPI","result",2.63176932,9.6e-07,0x09
"SPI","disable",2.6317716,4.00000004e-08,
"SPI","enable",2.6317768,3.99999999e-08,
"SPI","result",2.6317776,1e-06,0x09
"SPI","disable",2.63177992,3.99999999e-08,
"SPI","enable",2.63178512,4.00000004e-08,
"SPI","result",2.63178592,1e-06,0x75
"SPI","disable",2.63178824,3.99999994e-08,
"SPI","enable",2.63179344,3.99999999e-08,
"SPI","result",2.63179424,1e-06,0x00
"SPI","disable",2.63179656,3.99999999e-08,
"SPI","enable",2.63180176,3.99999994e-08,
"SPI","result",2.63180256,9.6e-07,0x00
"SPI","disable",2.63180488,4.00000004e-08,
"SPI","enable",2.63183024,3.99999999e-08,
"SPI","result",2.63183104,1e-06,0x15
"SPI","disable",2.63183336,3.99999999e-08,
"SPI","enable",2.63183856,4.00000004e-08,
"SPI","result",2.63183936,1e-06,0x09
"SPI","disable",2.63184168,4.00000004e-08,
"SPI","enable",2.63184688,3.99999999e-08,
"SPI","result",2.63184768,1e-06,0x09
"SPI","disable",2.63185,3.99999999e-08,
"SPI","enable",2.6318552,4.00000004e-08,
"SPI","result",2.631856,1e-06,0x75
"SPI","disable",2.63185832,3.99999994e-08,
"SPI","enable",2.63186352,4.00000004e-08,
"SPI","result",2.63186432,9.6e-07,0x01
"SPI","disable",2.63186664,3.99999999e-08,
"SPI","enable",2.6318718,4.00000004e-08,
"SPI","result",2.63187264,9.6e-07,0x01
"SPI","disable",2.63187492,3.99999999e-08,
"SPI","enable",2.63190544,3.99999999e-08,
"SPI","result",2.63190624,1e-06,0x15
"SPI","disable",2.63190856,4.00000004e-08,
"SPI","enable",2.63191376,3.99999994e-08,
"SPI","result",2.63191456,1e-06,0x09
"SPI","disable",2.63191688,4.00000004e-08,
"SPI","enable",2.63192208,4.00000004e-08,
"SPI","result",2.63192288,1e-06,0x09
"SPI","disable",2.6319252,3.99999999e-08,
"SPI","enable",2.6319304,4.00000004e-08,
"SPI","result",2.6319312,9.6e-07,0x75
"SPI","disable",2.63193352,3.99999999e-08,
"SPI","enable",2.63193872,3.99999999e-08,
"SPI","result",2.63193952,9.6e-07,0x02
"SPI","disable",2.63194184,3.99999999e-08,
"SPI","enable",2.631947,4.00000004e-08,
"SPI","result",2.63194784,9.6e-07,0x02
"SPI","disable",2.63195012,4.00000004e-08,
"SPI","enable",2.63197552,3.99999999e-08,
"SPI","result",2.63197632,1e-06,0x15
"SPI","disable",2.63197864,4.00000004e-08,
"SPI","enable",2.63198384,3.99999994e-08,
"SPI","result",2.63198464,1e-06,0x09
"SPI","disable",2.63198696,4.00000004e-08,
"SPI","enable",2.63199216,4.00000004e-08,
"SPI","result",2.63199296,9.6e-07,0x09
"SPI","disable",2.63199528,3.99999999e-08,
"SPI","enable",2.63200044,3.99999994e-08,
"SPI","result",2.63200128,9.6e-07,0x75
"SPI","disable",2.63200356,4.00000004e-08,
"SPI","enable",2.63200876,3.99999999e-08,
"SPI","result",2.63200956,9.99999999e-07,0x03
"SPI","disable",2.63201188,3.99999999e-08,
"SPI","enable",2.63201708,4.00000004e-08,
"SPI","result",2.63201788,1e-06,0x03
"SPI","disable",2.6320202,4.00000004e-08,
"SPI","enable",2.6320456,3.99999999e-08,
"SPI","result",2.6320464,9.6e-07,0x15
"SPI","disable",2.63204872,4.00000004e-08,
"SPI","enable",2.63205392,3.99999994e-08,
"SPI","result",2.63205472,9.6e-07,0x09
"SPI","disable",2.63205704,4.00000004e-08,
"SPI","enable",2.6320622,4.00000004e-08,
"SPI","result",2.63206304,9.6e-07,0x09
"SPI","disable",2.63206532,3.99999999e-08,
"SPI","enable",2.63207052,3.99999994e-08,
"SPI","result",2.63207132,1e-06,0x75
"SPI","disable",2.63207364,3.99999999e-08,
"SPI","enable",2.63207884,3.99999999e-08,
"SPI","result",2.63207964,9.99999999e-07,0x04
"SPI","disable",2.63208196,3.99999999e-08,
"SPI","enable",2.63208716,3.99999999e-08,
"SPI","result",2.63208796,1e-06,0x04
"SPI","disable",2.63209028,4.00000004e-08,
"SPI","enable",2.63211564,3.99999999e-08,
"SPI","result",2.63211648,9.6e-07,0x15
"SPI","disable",2.63211876,4.00000004e-08,
"SPI","enable",2.63212396,4.00000004e-08,
"SPI","result",2.63212476,1e-06,0x09
"SPI","disable",2.63212708,3.99999994e-08,
"SPI","enable",2.63213228,4.00000004e-08,
"SPI","result",2.63213308,1e-06,0x09
"SPI","disable",2.6321354,3.99999999e-08,
"SPI","enable",2.6321406,3.99999994e-08,
"SPI","result",2.6321414,1e-06,0x75
"SPI","disable",2.63214372,3.99999999e-08,
"SPI","enable",2.63214892,3.99999999e-08,
"SPI","result",2.63214972,9.99999999e-07,0x05
"SPI","disable",2.63215204,3.99999999e-08,
"SPI","enable",2.63215724,3.99999999e-08,
"SPI","result",2.63215804,9.6e-07,0x05
"SPI","disable",2.63216036,4.00000004e-08,
"SPI","enable",2.63218572,3.99999999e-08,
"SPI","result",2.63218652,1e-06,0x15
"SPI","disable",2.63218884,4.00000004e-08,
"SPI","enable",2.63219404,4.00000004e-08,
"SPI","result",2.63219484,1e-06,0x09
"SPI","disable",2.63219716,3.99999994e-08,
"SPI","enable",2.63220236,4.00000004e-08,
"SPI","result",2.63220316,1e-06,0x09
"SPI","disable",2.63220548,3.99999999e-08,
"SPI","enable",2.63221068,3.99999994e-08,
"SPI","result",2.63221148,1e-06,0x75
"SPI","disable",2.6322138,3.99999999e-08,
"SPI","enable",2.632219,3.99999999e-08,
"SPI","result",2.6322198,9.6e-07,0x06
"SPI","disable",2.63222212,3.99999994e-08,
"SPI","enable",2.63222728,3.99999999e-08,
"SPI","result",2.63222812,9.6e-07,0x06
"SPI","disable",2.6322304,3.99999999e-08,
"SPI","enable",2.6322688,4.00000004e-08,
"SPI","result",2.6322696,1e-06,0x15
"SPI","disable",2.63227192,3.99999999e-08,
"SPI","enable",2.63227712,4.00000004e-08,
"SPI","result",2.63227792,1e-06,0x0A
"SPI","disable",2.63228024,3.99999999e-08,
"SPI","enable",2.63228544,3.99999999e-08,
"SPI","result",2.63228624,9.6e-07,0x0A
"SPI","disable",2.63228856,3.99999999e-08,
"SPI","enable",2.63229376,3.99999999e-08,
"SPI","result",2.63229456,9.6e-07,0x75
"SPI","disable",2.63229688,3.99999994e-08,
"SPI","enable",2.63230204,3.99999999e-08,
"SPI","result",2.63230288,9.6e-07,0x02
"SPI","disable",2.63230516,3.99999999e-08,
"SPI","enable",2.63231036,4.00000004e-08,
"SPI","result",2.63231116,1e-06,0x02
"SPI","disable",2.63231348,3.99999994e-08,
"SPI","enable",2.63234232,4.00000004e-08,
"SPI","result",2.63234312,9.6e-07,0x15
"SPI","disable",2.63234544,3.99999999e-08,
"SPI","enable",2.63235064,4.00000004e-08,
"SPI","result",2.63235144,9.6e-07,0x0A
"SPI","disable",2.63235376,4.00000004e-08,
"SPI","enable",2.63235892,3.99999999e-08,
"SPI","result",2.63235976,9.6e-07,0x0A
"SPI","disable",2.63236204,3.99999999e-08,
"SPI","enable",2.63236724,3.99999999e-08,
"SPI","result",2.63236804,1e-06,0x75
"SPI","disable",2.63237036,4.00000004e-08,
"SPI","enable",2.63237556,3.99999999e-08,
"SPI","result",2.63237636,1e-06,0x04
"SPI","disable",2.63237868,4.00000004e-08,
"SPI","enable",2.63238388,4.00000004e-08,
"SPI","result",2.63238468,1e-06,0x04
"SPI","disable",2.632387,3.99999994e-08,
"SPI","enable",2.63246288,3.99999999e-08,
"SPI","result",2.63246368,1e-06,0x15
"SPI","disable",2.632466,4.00000004e-08,
"SPI","enable",2.6324712,4.00000004e-08,
"SPI","result",2.632472,1e-06,0x0C
"SPI","disable",2.63247432,3.99999994e-08,
"SPI","enable",2.63247952,4.00000004e-08,
"SPI","result",2.63248032,1e-06,0x0C
"SPI","disable",2.63248264,3.99999999e-08,
"SPI","enable",2.63248784,3.99999994e-08,
"SPI","result",2.63248864,9.6e-07,0x75
"SPI","disable",2.63249096,3.99999999e-08,
"SPI","enable",2.63249612,4.00000004e-08,
"SPI","result",2.63249696,9.6e-07,0x02
"SPI","disable",2.63249924,3.99999999e-08,
"SPI","enable",2.63250444,3.99999999e-08,
"SPI","result",2.63250524,1e-06,0x02
"SPI","disable",2.63250756,3.99999999e-08,
"SPI","enable",2.6325364,3.99999994e-08,
"SPI","result",2.6325372,1e-06,0x15
"SPI","disable",2.63253952,4.00000004e-08,
"SPI","enable",2.63254472,4.00000004e-08,
"SPI","result",2.63254552,9.6e-07,0x0C
"SPI","disable",2.63254784,3.99999999e-08,
"SPI","enable",2.63255304,4.00000004e-08,
"SPI","result",2.63255384,9.6e-07,0x0C
"SPI","disable",2.63255616,3.99999999e-08,
"SPI","enable",2.63256132,3.99999999e-08,
"SPI","result",2.63256216,9.6e-07,0x75
"SPI","disable",2.63256444,3.99999999e-08,
"SPI","enable",2.63256964,4.00000004e-08,
"SPI","result",2.63257044,1e-06,0x04
"SPI","disable",2.63257276,4.00000004e-08,
"SPI","enable",2.63257796,3.99999999e-08,
"SPI","result",2.63257876,1e-06,0x04
"SPI","disable",2.63258108,4.00000004e-08,
"SPI","enable",2.63261948,4.00000004e-08,
"SPI","result",2.63262028,9.60000001e-07,0x15
"SPI","disable",2.6326226,3.99999999e-08,
"SPI","enable",2.63262776,3.99999994e-08,
"SPI","result",2.6326286,9.6e-07,0x0D
"SPI","disable",2.63263088,4.00000004e-08,
"SPI","enable",2.63263608,3.99999999e-08,
"SPI","result",2.63263688,1e-06,0x0D
"SPI","disable",2.6326392,4.00000004e-08,
"SPI","enable",2.6326444,3.99999999e-08,
"SPI","result",2.6326452,1e-06,0x75
"SPI","disable",2.63264752,3.99999999e-08,
"SPI","enable",2.63265272,3.99999999e-08,
"SPI","result",2.63265352,1e-06,0x00
"SPI","disable",2.63265584,4.00000004e-08,
"SPI","enable",2.63266104,4.00000004e-08,
"SPI","result",2.63266184,1e-06,0x00
"SPI","disable",2.63266416,3.99999999e-08,
"SPI","enable",2.63268952,4.00000004e-08,
"SPI","result",2.63269036,9.60000001e-07,0x15
"SPI","disable",2.63269264,3.99999999e-08,
"SPI","enable",2.63269784,3.99999994e-08,
"SPI","result",2.63269864,1e-06,0x0D
"SPI","disable",2.63270096,3.99999999e-08,
"SPI","enable",2.63270616,3.99999999e-08,
"SPI","result",2.63270696,1e-06,0x0D
"SPI","disable",2.63270928,3.99999999e-08,
"SPI","enable",2.63271448,3.99999999e-08,
"SPI","result",2.63271528,1e-06,0x75
"SPI","disable",2.6327176,4.00000004e-08,
"SPI","enable",2.6327228,3.99999999e-08,
"SPI","result",2.6327236,9.6e-07,0x01
"SPI","disable",2.63272592,4.00000004e-08,
"SPI","enable",2.63273112,4.00000004e-08,
"SPI","result",2.63273192,9.6e-07,0x01
"SPI","disable",2.63273424,3.99999999e-08,
"SPI","enable",2.6327596,4.00000004e-08,
"SPI","result",2.6327604,1e-06,0x15
"SPI","disable",2.63276272,3.99999999e-08,
"SPI","enable",2.63276792,3.99999994e-08,
"SPI","result",2.63276872,1e-06,0x0D
"SPI","disable",2.63277104,3.99999999e-08,
"SPI","enable",2.63277624,3.99999999e-08,
"SPI","result",2.63277704,1e-06,0x0D
"SPI","disable",2.63277936,3.99999999e-08,
"SPI","enable",2.63278456,3.99999999e-08,
"SPI","result",2.63278536,9.6e-07,0x75
"SPI","disable",2.63278768,4.00000004e-08,
"SPI","enable",2.63279288,3.99999999e-08,
"SPI","result",2.63279368,9.6e-07,0x02
"SPI","disable",2.63279596,3.99999994e-08,
"SPI","enable",2.63280116,3.99999999e-08,
"SPI","result",2.632802,9.6e-07,0x02
"SPI","disable",2.63280428,3.99999999e-08,
"SPI","enable",2.63282968,4.00000004e-08,
"SPI","result",2.63283048,1e-06,0x15
"SPI","disable",2.6328328,3.99999999e-08,
"SPI","enable",2.632838,3.99999999e-08,
"SPI","result",2.6328388,1e-06,0x0D
"SPI","disable",2.63284112,3.99999999e-08,
"SPI","enable",2.63284632,3.99999999e-08,
"SPI","result",2.63284712,9.6e-07,0x0D
"SPI","disable",2.63284944,3.99999994e-08,
"SPI","enable",2.6328546,3.99999999e-08,
"SPI","result",2.63285544,9.6e-07,0x75
"SPI","disable",2.63285772,3.99999999e-08,
"SPI","enable",2.63286292,4.00000004e-08,
"SPI","result",2.63286372,1e-06,0x03
"SPI","disable",2.63286604,3.99999994e-08,
"SPI","enable",2.63287124,3.99999999e-08,
"SPI","result",2.63287204,1e-06,0x03
"SPI","disable",2.63287436,3.99999999e-08,
"SPI","enable",2.63289976,4.00000004e-08,
"SPI","result",2.63290056,9.6e-07,0x15
"SPI","disable",2.63290288,3.99999999e-08,
"SPI","enable",2.63290808,3.99999999e-08,
"SPI","result",2.63291492,1e-06,0x0D
"SPI","disable",2.63291724,4.00000004e-08,
"SPI","enable",2.63292244,3.99999999e-08,
"SPI","result",2.63292324,1e-06,0x0D
"SPI","disable",2.63292556,4.00000004e-08,
"SPI","enable",2.63293076,4.00000004e-08,
"SPI","result",2.63293156,1e-06,0x75
"SPI","disable",2.63293388,3.99999999e-08,
"SPI","enable",2.63293908,3.99999999e-08,
"SPI","result",2.63293988,9.6e-07,0x04
"SPI","disable",2.6329422,4.00000004e-08,
"SPI","enable",2.63294736,3.99999999e-08,
"SPI","result",2.6329482,9.6e-07,0x04
"SPI","disable",2.63295048,3.99999999e-08,
"SPI","enable",2.63297588,3.99999999e-08,
"SPI","result",2.63297668,1e-06,0x15
"SPI","disable",2.632979,3.99999994e-08,
"SPI","enable",2.6329842,3.99999994e-08,
"SPI","result",2.632985,1e-06,0x0D
"SPI","disable",2.63298732,4.00000004e-08,
"SPI","enable",2.63299252,3.99999999e-08,
"SPI","result",2.63299332,9.6e-07,0x0D
"SPI","disable",2.63299564,4.00000004e-08,
"SPI","enable",2.63300084,4.00000004e-08,
"SPI","result",2.63300164,9.6e-07,0x75
"SPI","disable",2.63300396,3.99999999e-08,
"SPI","enable",2.63300912,3.99999999e-08,
"SPI","result",2.63300996,9.6e-07,0x05
"SPI","disable",2.63301224,4.00000004e-08,
"SPI","enable",2.63301744,3.99999999e-08,
"SPI","result",2.63301824,1e-06,0x05
"SPI","disable",2.63302056,3.99999999e-08,
"SPI","enable",2.63304596,4.00000004e-08,
"SPI","result",2.63304676,1e-06,0x15
"SPI","disable",2.63304908,3.99999999e-08,
"SPI","enable",2.63305428,3.99999994e-08,
"SPI","result",2.63305508,9.6e-07,0x0D
"SPI","disable",2.6330574,3.99999999e-08,
"SPI","enable",2.63306256,4.00000004e-08,
"SPI","result",2.6330634,9.6e-07,0x0D
"SPI","disable",2.63306568,3.99999999e-08,
"SPI","enable",2.63307088,3.99999999e-08,
"SPI","result",2.63307168,1e-06,0x75
"SPI","disable",2.633074,3.99999999e-08,
"SPI","enable",2.6330792,3.99999999e-08,
"SPI","result",2.63308,1e-06,0x06
"SPI","disable",2.63308232,3.99999999e-08,
"SPI","enable",2.63308752,3.99999999e-08,
"SPI","result",2.63308832,1e-06,0x06
"SPI","disable",2.63309064,3.99999999e-08,
"SPI","enable",2.63312904,3.99999999e-08,
"SPI","result",2.63312984,9.6e-07,0x15
"SPI","disable",2.63313216,3.99999999e-08,
"SPI","enable",2.63313732,4.00000004e-08,
"SPI","result",2.63313816,9.6e-07,0x0E
"SPI","disable",2.63314044,3.99999994e-08,
"SPI","enable",2.63314564,4.00000004e-08,
"SPI","result",2.63314644,1e-06,0x0E
"SPI","disable",2.63314876,3.99999999e-08,
"SPI","enable",2.63315396,3.99999999e-08,
"SPI","result",2.63315476,1e-06,0x75
"SPI","disable",2.63315708,3.99999999e-08,
"SPI","enable",2.63316228,3.99999999e-08,
"SPI","result",2.63316308,1e-06,0x02
"SPI","disable",2.6331654,3.99999994e-08,
"SPI","enable",2.6331706,3.99999999e-08,
"SPI","result",2.6331714,1e-06,0x02
"SPI","disable",2.63317372,4.00000004e-08,
"SPI","enable",2.63320252,3.99999999e-08,
"SPI","result",2.63320332,1e-06,0x15
"SPI","disable",2.63320564,3.99999999e-08,
"SPI","enable",2.63321084,4.00000004e-08,
"SPI","result",2.63321164,1e-06,0x0E
"SPI","disable",2.63321396,3.99999999e-08,
"SPI","enable",2.63321916,3.99999999e-08,
"SPI","result",2.63321996,1e-06,0x0E
"SPI","disable",2.63322228,3.99999999e-08,
"SPI","enable",2.63322748,4.00000004e-08,
"SPI","result",2.63322828,1e-06,0x75
"SPI","disable",2.6332306,3.99999999e-08,
"SPI","enable",2.6332358,4.00000004e-08,
"SPI","result",2.6332366,9.6e-07,0x04
"SPI","disable",2.63323892,3.99999994e-08,
"SPI","enable",2.63324408,4.00000004e-08,
"SPI","result",2.63324492,9.6e-07,0x04
"SPI","disable",2.6332472,4.00000004e-08,
"SPI","enable",2.6332856,4.00000004e-08,
"SPI","result",2.6332864,1e-06,0x15
"SPI","disable",2.63328872,3.99999999e-08,
"SPI","enable",2.63329392,3.99999999e-08,
"SPI","result",2.63329472,1e-06,0x0F
"SPI","disable",2.63329704,4.00000004e-08,
"SPI","enable",2.63330224,3.99999999e-08,
"SPI","result",2.63330304,1e-06,0x0F
"SPI","disable",2.63330536,3.99999999e-08,
"SPI","enable",2.63331056,4.00000004e-08,
"SPI","result",2.63331136,9.6e-07,0x75
"SPI","disable",2.63331368,3.99999994e-08,
"SPI","enable",2.63331884,3.99999999e-08,
"SPI","result",2.63331968,9.6e-07,0x00
"SPI","disable",2.63332196,4.00000004e-08,
"SPI","enable",2.63332716,4.00000004e-08,
"SPI","result",2.63332796,1e-06,0x00
"SPI","disable",2.63333028,3.99999994e-08,
"SPI","enable",2.63335568,3.99999999e-08,
"SPI","result",2.63335648,1e-06,0x15
"SPI","disable",2.6333588,3.99999999e-08,
"SPI","enable",2.633364,3.99999999e-08,
"SPI","result",2.6333648,9.6e-07,0x0F
"SPI","disable",2.63336712,4.00000004e-08,
"SPI","enable",2.63337232,4.00000004e-08,
"SPI","result",2.63337312,9.6e-07,0x0F
"SPI","disable",2.6333754,3.99999999e-08,
"SPI","enable",2.6333806,3.99999999e-08,
"SPI","result",2.63338144,9.6e-07,0x75
"SPI","disable",2.63338372,4.00000004e-08,
"SPI","enable",2.63338892,4.00000004e-08,
"SPI","result",2.63338972,1e-06,0x01
"SPI","disable",2.63339204,4.00000004e-08,
"SPI","enable",2.63339724,4.00000004e-08,
"SPI","result",2.63339804,1e-06,0x01
"SPI","disable",2.63340036,3.99999999e-08,
"SPI","enable",2.63342576,3.99999999e-08,
"SPI","result",2.63342656,9.6e-07,0x15
"SPI","disable",2.63342888,4.00000004e-08,
"SPI","enable",2.63343404,3.99999999e-08,
"SPI","result",2.63343488,9.6e-07,0x0F
"SPI","disable",2.63343716,3.99999999e-08,
"SPI","enable",2.63344236,3.99999999e-08,
"SPI","result",2.63344316,1e-06,0x0F
"SPI","disable",2.63344548,3.99999999e-08,
"SPI","enable",2.63345068,3.99999994e-08,
"SPI","result",2.63345148,1e-06,0x75
"SPI","disable",2.6334538,4.00000004e-08,
"SPI","enable",2.633459,3.99999999e-08,
"SPI","result",2.6334598,1e-06,0x02
"SPI","disable",2.63346212,4.00000004e-08,
"SPI","enable",2.63346732,4.00000004e-08,
"SPI","result",2.63346812,1e-06,0x02
"SPI","disable",2.63347044,3.99999999e-08,
"SPI","enable",2.6334958,3.99999999e-08,
"SPI","result",2.63349664,9.6e-07,0x15
"SPI","disable",2.63349892,3.99999999e-08,
"SPI","enable",2.63350412,4.00000004e-08,
"SPI","result",2.63350492,1e-06,0x0F
"SPI","disable",2.63350724,3.99999999e-08,
"SPI","enable",2.63351244,3.99999999e-08,
"SPI","result",2.63351324,1e-06,0x0F
"SPI","disable",2.63351556,3.99999999e-08,
"SPI","enable",2.63352076,3.99999994e-08,
"SPI","result",2.63352156,1e-06,0x75
"SPI","disable",2.63352388,4.00000004e-08,
"SPI","enable",2.63352908,3.99999999e-08,
"SPI","result",2.63352988,9.6e-07,0x03
"SPI","disable",2.6335322,3.99999999e-08,
"SPI","enable",2.6335374,4.00000004e-08,
"SPI","result",2.6335382,9.6e-07,0x03
"SPI","disable",2.63354052,4.00000004e-08,
"SPI","enable",2.63356588,3.99999999e-08,
"SPI","result",2.63356668,1e-06,0x15
"SPI","disable",2.633569,3.99999999e-08,
"SPI","enable",2.6335742,4.00000004e-08,
"SPI","result",2.633575,1e-06,0x0F
"SPI","disable",2.63357732,3.99999994e-08,
"SPI","enable",2.63358252,3.99999999e-08,
"SPI","result",2.63358332,1e-06,0x0F
"SPI","disable",2.63358564,3.99999999e-08,
"SPI","enable",2.63359084,3.99999994e-08,
"SPI","result",2.63359164,9.6e-07,0x75
"SPI","disable",2.63359396,4.00000004e-08,
"SPI","enable",2.63359912,4.00000004e-08,
"SPI","result",2.63359996,9.6e-07,0x04
"SPI","disable",2.63360224,3.99999999e-08,
"SPI","enable",2.63360744,3.99999994e-08,
"SPI","result",2.63360824,1e-06,0x04
"SPI","disable",2.63361056,3.99999999e-08,
"SPI","enable",2.63363596,3.99999999e-08,
"SPI","result",2.63363676,1e-06,0x15
"SPI","disable",2.63363908,3.99999999e-08,
"SPI","enable",2.63364428,4.00000004e-08,
"SPI","result",2.63364508,9.6e-07,0x0F
"SPI","disable",2.6336474,3.99999994e-08,
"SPI","enable",2.6336526,4.00000004e-08,
"SPI","result",2.6336534,9.6e-07,0x0F
"SPI","disable",2.63365572,3.99999999e-08,
"SPI","enable",2.63366088,4.00000004e-08,
"SPI","result",2.63366172,9.6e-07,0x75
"SPI","disable",2.633664,3.99999999e-08,
"SPI","enable",2.6336692,4.00000004e-08,
"SPI","result",2.63367,1e-06,0x05
"SPI","disable",2.63367232,3.99999999e-08,
"SPI","enable",2.63367752,3.99999999e-08,
"SPI","result",2.63367832,1e-06,0x05
"SPI","disable",2.63368064,3.99999999e-08,
"SPI","enable",2.63370604,3.99999999e-08,
"SPI","result",2.63370684,9.6e-07,0x15
"SPI","disable",2.63370916,4.00000004e-08,
"SPI","enable",2.63371432,3.99999999e-08,
"SPI","result",2.63371516,9.6e-07,0x0F
"SPI","disable",2.63371744,4.00000004e-08,
"SPI","enable",2.63372264,3.99999999e-08,
"SPI","result",2.63372348,9.6e-07,0x0F
"SPI","disable",2.63372576,4.00000004e-08,
"SPI","enable",2.63373096,4.00000004e-08,
"SPI","result",2.63373176,1e-06,0x75
"SPI","disable",2.63373408,3.99999999e-08,
"SPI","enable",2.63373928,4.00000004e-08,
"SPI","result",2.63374008,1e-06,0x06
"SPI","disable",2.6337424,3.99999999e-08,
"SPI","enable",2.6337476,3.99999999e-08,
"SPI","result",2.6337484,1e-06,0x06
"SPI","disable",2.63375072,3.99999999e-08,
"SPI","enable",2.63378908,3.99999999e-08,
"SPI","result",2.63378992,9.6e-07,0x15
"SPI","disable",2.6337922,4.00000004e-08,
"SPI","enable",2.6337974,3.99999994e-08,
"SPI","result",2.6337982,1e-06,0x10
"SPI","disable",2.63380052,4.00000004e-08,
"SPI","enable",2.63380572,4.00000004e-08,
"SPI","result",2.63380652,1e-06,0x10
"SPI","disable",2.63380884,3.99999999e-08,
"SPI","enable",2.63381404,4.00000004e-08,
"SPI","result",2.63381484,1e-06,0x75
"SPI","disable",2.63381716,4.00000004e-08,
"SPI","enable",2.63382236,3.99999999e-08,
"SPI","result",2.63382316,1e-06,0x02
"SPI","disable",2.63382548,3.99999999e-08,
"SPI","enable",2.63383068,4.00000004e-08,
"SPI","result",2.63383148,9.6e-07,0x02
"SPI","disable",2.6338338,3.99999994e-08,
"SPI","enable",2.6338626,3.99999999e-08,
"SPI","result",2.6338634,1e-06,0x15
"SPI","disable",2.63386572,3.99999999e-08,
"SPI","enable",2.63387092,3.99999994e-08,
"SPI","result",2.63387172,1e-06,0x10
"SPI","disable",2.63387404,4.00000004e-08,
"SPI","enable",2.63387924,3.99999999e-08,
"SPI","result",2.63388004,1e-06,0x10
"SPI","disable",2.63388236,3.99999999e-08,
"SPI","enable",2.63388756,4.00000004e-08,
"SPI","result",2.63388836,9.6e-07,0x75
"SPI","disable",2.63389068,4.00000004e-08,
"SPI","enable",2.63389584,3.99999999e-08,
"SPI","result",2.63389668,9.6e-07,0x04
"SPI","disable",2.63389896,3.99999999e-08,
"SPI","enable",2.63390416,3.99999999e-08,
"SPI","result",2.63390496,1e-06,0x04
"SPI","disable",2.63390728,4.00000004e-08,
"SPI","enable",2.63398924,4.00000004e-08,
"SPI","result",2.63399004,1e-06,0x15
"SPI","disable",2.63399236,3.99999999e-08,
"SPI","enable",2.63399756,3.99999994e-08,
"SPI","result",2.63399836,1e-06,0x12
"SPI","disable",2.63400068,3.99999999e-08,
"SPI","enable",2.63400588,3.99999999e-08,
"SPI","result",2.63400668,1e-06,0x12
"SPI","disable",2.634009,3.99999999e-08,
"SPI","enable",2.6340142,3.99999999e-08,
"SPI","result",2.634015,9.6e-07,0x75
"SPI","disable",2.63401732,4.00000004e-08,
"SPI","enable",2.63402248,3.99999999e-08,
"SPI","result",2.63402332,9.6e-07,0x02
"SPI","disable",2.6340256,3.99999994e-08,
"SPI","enable",2.6340308,3.99999999e-08,
"SPI","result",2.6340316,1e-06,0x02
"SPI","disable",2.63403392,4.00000004e-08,
"SPI","enable",2.63406276,4.00000004e-08,
"SPI","result",2.63406356,1e-06,0x15
"SPI","disable",2.63406588,3.99999999e-08,
"SPI","enable",2.63407108,3.99999999e-08,
"SPI","result",2.63407188,9.6e-07,0x12
"SPI","disable",2.6340742,3.99999999e-08,
"SPI","enable",2.6340794,3.99999999e-08,
"SPI","result",2.6340802,9.6e-07,0x12
"SPI","disable",2.63408248,4.00000004e-08,
"SPI","enable",2.63408768,3.99999999e-08,
"SPI","result",2.63408852,9.6e-07,0x75
"SPI","disable",2.6340908,3.99999999e-08,
"SPI","enable",2.634096,4.00000004e-08,
"SPI","result",2.6340968,1e-06,0x04
"SPI","disable",2.63409912,3.99999994e-08,
"SPI","enable",2.63410432,3.99999999e-08,
"SPI","result",2.63410512,1e-06,0x04
"SPI","disable",2.63410744,3.99999999e-08,
"SPI","enable",2.63414584,3.99999999e-08,
"SPI","result",2.63414664,9.6e-07,0x15
"SPI","disable",2.63414896,3.99999999e-08,
"SPI","enable",2.63415412,4.00000004e-08,
"SPI","result",2.63415496,9.6e-07,0x13
"SPI","disable",2.63415724,4.00000004e-08,
"SPI","enable",2.63416244,3.99999999e-08,
"SPI","result",2.63416324,1e-06,0x13
"SPI","disable",2.63416556,4.00000004e-08,
"SPI","enable",2.63417076,4.00000004e-08,
"SPI","result",2.63417156,1e-06,0x75
"SPI","disable",2.63417388,3.99999994e-08,
"SPI","enable",2.63417908,4.00000004e-08,
"SPI","result",2.63417988,1e-06,0x00
"SPI","disable",2.6341822,3.99999999e-08,
"SPI","enable",2.6341874,3.99999994e-08,
"SPI","result",2.6341882,1e-06,0x00
"SPI","disable",2.63419052,3.99999999e-08,
"SPI","enable",2.63421588,3.99999999e-08,
"SPI","result",2.63421672,9.6e-07,0x15
"SPI","disable",2.634219,3.99999999e-08,
"SPI","enable",2.6342242,4.00000004e-08,
"SPI","result",2.634225,1e-06,0x13
"SPI","disable",2.63422732,4.00000004e-08,
"SPI","enable",2.63423252,3.99999999e-08,
"SPI","result",2.63423332,1e-06,0x13
"SPI","disable",2.63423564,4.00000004e-08,
"SPI","enable",2.63424084,4.00000004e-08,
"SPI","result",2.63424164,1e-06,0x75
"SPI","disable",2.63424396,3.99999994e-08,
"SPI","enable",2.63424916,4.00000004e-08,
"SPI","result",2.63424996,9.6e-07,0x01
"SPI","disable",2.63425228,3.99999999e-08,
"SPI","enable",2.63425748,3.99999994e-08,
"SPI","result",2.63425828,9.6e-07,0x01
"SPI","disable",2.6342606,3.99999999e-08,
"SPI","enable",2.63428596,3.99999999e-08,
"SPI","result",2.63428676,1e-06,0x15
"SPI","disable",2.63428908,3.99999999e-08,
"SPI","enable",2.63429428,3.99999999e-08,
"SPI","result",2.63429508,1e-06,0x13
"SPI","disable",2.6342974,4.00000004e-08,
"SPI","enable",2.6343026,3.99999999e-08,
"SPI","result",2.6343034,1e-06,0x13
"SPI","disable",2.63430572,4.00000004e-08,
"SPI","enable",2.63431092,4.00000004e-08,
"SPI","result",2.63431172,9.6e-07,0x75
"SPI","disable",2.63431404,3.99999994e-08,
"SPI","enable",2.6343192,3.99999994e-08,
"SPI","result",2.63432004,9.6e-07,0x02
"SPI","disable",2.63432232,4.00000004e-08,
"SPI","enable",2.63432752,4.00000004e-08,
"SPI","result",2.63432832,1e-06,0x02
"SPI","disable",2.63433064,3.99999999e-08,
"SPI","enable",2.63435604,3.99999999e-08,
"SPI","result",2.63435684,1e-06,0x15
"SPI","disable",2.63435916,3.99999999e-08,
"SPI","enable",2.63436436,3.99999999e-08,
"SPI","result",2.63436516,9.6e-07,0x13
"SPI","disable",2.63436748,4.00000004e-08,
"SPI","enable",2.63437268,3.99999999e-08,
"SPI","result",2.63437348,9.6e-07,0x13
"SPI","disable",2.6343758,4.00000004e-08,
"SPI","enable",2.63438096,3.99999999e-08,
"SPI","result",2.6343818,9.6e-07,0x75
"SPI","disable",2.63438408,4.00000004e-08,
"SPI","enable",2.63438928,3.99999994e-08,
"SPI","result",2.63439008,1e-06,0x03
"SPI","disable",2.6343924,4.00000004e-08,
"SPI","enable",2.6343976,4.00000004e-08,
"SPI","result",2.6343984,1e-06,0x03
"SPI","disable",2.63440072,3.99999999e-08,
"SPI","enable",2.63442612,3.99999999e-08,
"SPI","result",2.63442692,9.6e-07,0x15
"SPI","disable",2.63442924,3.99999999e-08,
"SPI","enable",2.63443444,3.99999999e-08,
"SPI","result",2.63443524,9.6e-07,0x13
"SPI","disable",2.63443752,3.99999999e-08,
"SPI","enable",2.63444272,4.00000004e-08,
"SPI","result",2.63444356,9.6e-07,0x13
"SPI","disable",2.63444584,3.99999994e-08,
"SPI","enable",2.63445104,3.99999999e-08,
"SPI","result",2.63445184,1e-06,0x75
"SPI","disable",2.63445416,3.99999999e-08,
"SPI","enable",2.63445936,3.99999994e-08,
"SPI","result",2.63446016,1e-06,0x04
"SPI","disable",2.63446248,4.00000004e-08,
"SPI","enable",2.63446768,3.99999999e-08,
"SPI","result",2.63446848,1e-06,0x04
"SPI","disable",2.6344708,3.99999999e-08,
"SPI","enable",2.63449616,4.00000004e-08,
"SPI","result",2.634497,9.6e-07,0x15
"SPI","disable",2.63449928,4.00000004e-08,
"SPI","enable",2.63450448,3.99999999e-08,
"SPI","result",2.63450528,1e-06,0x13
"SPI","disable",2.6345076,3.99999999e-08,
"SPI","enable",2.6345128,4.00000004e-08,
"SPI","result",2.6345136,1e-06,0x13
"SPI","disable",2.63451592,3.99999994e-08,
"SPI","enable",2.63452112,3.99999999e-08,
"SPI","result",2.63452192,1e-06,0x75
"SPI","disable",2.63452424,3.99999999e-08,
"SPI","enable",2.63452944,3.99999994e-08,
"SPI","result",2.63453024,1e-06,0x05
"SPI","disable",2.63453256,4.00000004e-08,
"SPI","enable",2.63453776,3.99999999e-08,
"SPI","result",2.63453856,9.6e-07,0x05
"SPI","disable",2.63454088,3.99999999e-08,
"SPI","enable",2.63456624,4.00000004e-08,
"SPI","result",2.63456704,1e-06,0x15
"SPI","disable",2.63456936,4.00000004e-08,
"SPI","enable",2.63457456,3.99999999e-08,
"SPI","result",2.63457536,1e-06,0x13
"SPI","disable",2.63457768,3.99999999e-08,
"SPI","enable",2.63458288,4.00000004e-08,
"SPI","result",2.63458368,1e-06,0x13
"SPI","disable",2.634586,3.99999994e-08,
"SPI","enable",2.6345912,3.99999999e-08,
"SPI","result",2.634592,9.6e-07,0x75
"SPI","disable",2.63459432,3.99999999e-08,
"SPI","enable",2.63459952,3.99999994e-08,
"SPI","result",2.63460032,9.6e-07,0x06
"SPI","disable",2.63460264,3.99999999e-08,
"SPI","enable",2.6346078,4.00000004e-08,
"SPI","result",2.63460864,9.6e-07,0x06
"SPI","disable",2.63461092,3.99999999e-08,
"SPI","enable",2.63464932,3.99999999e-08,
"SPI","result",2.63465012,1e-06,0x15
"SPI","disable",2.63465244,4.00000004e-08,
"SPI","enable",2.63465764,4.00000004e-08,
"SPI","result",2.63465844,1e-06,0x14
"SPI","disable",2.63466076,3.99999994e-08,
"SPI","enable",2.63466596,4.00000004e-08,
"SPI","result",2.63466676,9.6e-07,0x14
"SPI","disable",2.63466908,3.99999999e-08,
"SPI","enable",2.63467424,4.00000004e-08,
"SPI","result",2.63467508,9.6e-07,0x75
"SPI","disable",2.63467736,3.99999999e-08,
"SPI","enable",2.63468256,4.00000004e-08,
"SPI","result",2.6346834,9.6e-07,0x02
"SPI","disable",2.63468568,3.99999999e-08,
"SPI","enable",2.63469088,3.99999999e-08,
"SPI","result",2.63469168,1e-06,0x02
"SPI","disable",2.634694,3.99999999e-08,
"SPI","enable",2.63472284,3.99999999e-08,
"SPI","result",2.63472364,9.6e-07,0x15
"SPI","disable",2.63472596,4.00000004e-08,
"SPI","enable",2.63473116,4.00000004e-08,
"SPI","result",2.63473196,9.6e-07,0x14
"SPI","disable",2.63473428,3.99999999e-08,
"SPI","enable",2.63473944,3.99999994e-08,
"SPI","result",2.63474028,9.6e-07,0x14
"SPI","disable",2.63474256,4.00000004e-08,
"SPI","enable",2.63474776,3.99999999e-08,
"SPI","result",2.63474856,1e-06,0x75
"SPI","disable",2.63475088,3.99999999e-08,
"SPI","enable",2.63475608,4.00000004e-08,
"SPI","result",2.63475688,1e-06,0x04
"SPI","disable",2.6347592,4.00000004e-08,
"SPI","enable",2.6347644,3.99999999e-08,
"SPI","result",2.6347652,1e-06,0x04
"SPI","disable",2.63476752,3.99999999e-08,
"SPI","enable",2.63480588,3.99999999e-08,
"SPI","result",2.63480672,9.6e-07,0x15
"SPI","disable",2.634809,3.99999999e-08,
"SPI","enable",2.6348142,3.99999994e-08,
"SPI","result",2.634815,1e-06,0x15
"SPI","disable",2.63481732,4.00000004e-08,
"SPI","enable",2.63482252,3.99999999e-08,
"SPI","result",2.63482332,1e-06,0x15
"SPI","disable",2.63482564,3.99999999e-08,
"SPI","enable",2.63483084,4.00000004e-08,
"SPI","result",2.63483164,1e-06,0x75
"SPI","disable",2.63483396,4.00000004e-08,
"SPI","enable",2.63483916,3.99999999e-08,
"SPI","result",2.63483996,1e-06,0x00
"SPI","disable",2.63484228,4.00000004e-08,
"SPI","enable",2.63484748,4.00000004e-08,
"SPI","result",2.63484828,9.6e-07,0x00
"SPI","disable",2.6348506,3.99999994e-08,
"SPI","enable",2.63487596,4.00000004e-08,
"SPI","result",2.63487676,1e-06,0x15
"SPI","disable",2.63487908,3.99999999e-08,
"SPI","enable",2.63488428,3.99999994e-08,
"SPI","result",2.63488508,1e-06,0x15
"SPI","disable",2.6348874,3.99999999e-08,
"SPI","enable",2.6348926,3.99999999e-08,
"SPI","result",2.6348934,9.99999999e-07,0x15
"SPI","disable",2.63489572,3.99999999e-08,
"SPI","enable",2.63490092,3.99999999e-08,
"SPI","result",2.63490172,9.6e-07,0x75
"SPI","disable",2.63490404,4.00000004e-08,
"SPI","enable",2.63490924,3.99999999e-08,
"SPI","result",2.63491004,9.6e-07,0x01
"SPI","disable",2.63491236,4.00000004e-08,
"SPI","enable",2.63491752,3.99999999e-08,
"SPI","result",2.63491836,9.6e-07,0x01
"SPI","disable",2.63492064,4.00000004e-08,
"SPI","enable",2.63494604,4.00000004e-08,
"SPI","result",2.63494684,1e-06,0x15
"SPI","disable",2.63494916,3.99999999e-08,
"SPI","enable",2.63495436,3.99999994e-08,
"SPI","result",2.63495516,1e-06,0x15
"SPI","disable",2.63496352,4.00000004e-08,
"SPI","enable",2.63496872,4.00000004e-08,
"SPI","result",2.63496952,1e-06,0x15
"SPI","disable",2.63497184,3.99999999e-08,
"SPI","enable",2.63497704,4.00000004e-08,
"SPI","result",2.63497784,1e-06,0x75
"SPI","disable",2.63498016,4.00000004e-08,
"SPI","enable",2.63498536,3.99999999e-08,
"SPI","result",2.63498616,1e-06,0x02
"SPI","disable",2.63498848,3.99999999e-08,
"SPI","enable",2.63499368,4.00000004e-08,
"SPI","result",2.63499448,1e-06,0x02
"SPI","disable",2.6349968,3.99999994e-08,
"SPI","enable",2.63502216,3.99999999e-08,
"SPI","result",2.635023,9.6e-07,0x15
"SPI","disable",2.63502528,4.00000004e-08,
"SPI","enable",2.63503048,3.99999994e-08,
"SPI","result",2.63503128,1e-06,0x15
"SPI","disable",2.6350336,4.00000004e-08,
"SPI","enable",2.6350388,4.00000004e-08,
"SPI","result",2.6350396,1e-06,0x15
"SPI","disable",2.63504192,3.99999999e-08,
"SPI","enable",2.63504712,4.00000004e-08,
"SPI","result",2.63504792,1e-06,0x75
"SPI","disable",2.63505024,4.00000004e-08,
"SPI","enable",2.63505544,3.99999999e-08,
"SPI","result",2.63505624,9.6e-07,0x03
"SPI","disable",2.63505856,3.99999999e-08,
"SPI","enable",2.63506376,4.00000004e-08,
"SPI","result",2.63506456,9.6e-07,0x03
"SPI","disable",2.63506688,3.99999994e-08,
"SPI","enable",2.63509224,3.99999999e-08,
"SPI","result",2.63509304,1e-06,0x15
"SPI","disable",2.63509536,3.99999999e-08,
"SPI","enable",2.63510056,3.99999994e-08,
"SPI","result",2.63510136,1e-06,0x15
"SPI","disable",2.63510368,4.00000004e-08,
"SPI","enable",2.63510888,3.99999999e-08,
"SPI","result",2.63510968,1e-06,0x15
"SPI","disable",2.635112,3.99999999e-08,
"SPI","enable",2.6351172,4.00000004e-08,
"SPI","result",2.635118,9.6e-07,0x75
"SPI","disable",2.63512032,4.00000004e-08,
"SPI","enable",2.63512548,3.99999999e-08,
"SPI","result",2.63512632,9.6e-07,0x04
"SPI","disable",2.6351286,3.99999999e-08,
"SPI","enable",2.6351338,3.99999999e-08,
"SPI","result",2.6351346,1e-06,0x04
"SPI","disable",2.63513692,4.00000004e-08,
"SPI","enable",2.63516232,3.99999999e-08,
"SPI","result",2.63516312,1e-06,0x15
"SPI","disable",2.63516544,3.99999999e-08,
"SPI","enable",2.63517064,3.99999994e-08,
"SPI","result",2.63517144,9.6e-07,0x15
"SPI","disable",2.63517376,4.00000004e-08,
"SPI","enable",2.63517896,3.99999999e-08,
"SPI","result",2.63517976,9.6e-07,0x15
"SPI","disable",2.63518208,3.99999999e-08,
"SPI","enable",2.63518724,3.99999994e-08,
"SPI","result",2.63518808,9.6e-07,0x75
"SPI","disable",2.63519036,3.99999999e-08,
"SPI","enable",2.63519556,3.99999999e-08,
"SPI","result",2.63519636,1e-06,0x05
"SPI","disable",2.63519868,3.99999999e-08,
"SPI","enable",2.63520388,3.99999999e-08,
"SPI","result",2.63520468,1e-06,0x05
"SPI","disable",2.635207,4.00000004e-08,
"SPI","enable",2.6352324,3.99999999e-08,
"SPI","result",2.6352332,9.6e-07,0x15
"SPI","disable",2.63523552,3.99999999e-08,
"SPI","enable",2.63524068,4.00000004e-08,
"SPI","result",2.63524152,9.6e-07,0x15
"SPI","disable",2.6352438,3.99999994e-08,
"SPI","enable",2.635249,4.00000004e-08,
"SPI","result",2.6352498,1e-06,0x15
"SPI","disable",2.63525212,3.99999999e-08,
"SPI","enable",2.63525732,3.99999999e-08,
"SPI","result",2.63525812,1e-06,0x75
"SPI","disable",2.63526044,3.99999999e-08,
"SPI","enable",2.63526564,3.99999999e-08,
"SPI","result",2.63526644,1e-06,0x06
"SPI","disable",2.63526876,3.99999994e-08,
"SPI","enable",2.63527396,3.99999999e-08,
"SPI","result",2.63527476,1e-06,0x06
"SPI","disable",2.63527708,4.00000004e-08,
"SPI","enable",2.63531544,4.00000004e-08,
"SPI","result",2.63531628,9.6e-07,0x15
"SPI","disable",2.63531856,3.99999999e-08,
"SPI","enable",2.63532376,4.00000004e-08,
"SPI","result",2.63532456,1e-06,0x16
"SPI","disable",2.63532688,3.99999999e-08,
"SPI","enable",2.63533208,3.99999999e-08,
"SPI","result",2.63533288,1e-06,0x16
"SPI","disable",2.6353352,3.99999999e-08,
"SPI","enable",2.6353404,3.99999999e-08,
"SPI","result",2.6353412,1e-06,0x75
"SPI","disable",2.63534352,3.99999994e-08,
"SPI","enable",2.63534872,3.99999999e-08,
"SPI","result",2.63534952,1e-06,0x02
"SPI","disable",2.63535184,4.00000004e-08,
"SPI","enable",2.63535704,3.99999994e-08,
"SPI","result",2.63535784,9.6e-07,0x02
"SPI","disable",2.63536016,4.00000004e-08,
"SPI","enable",2.63538896,4.00000004e-08,
"SPI","result",2.63538976,1e-06,0x15
"SPI","disable",2.63539208,3.99999999e-08,
"SPI","enable",2.63539728,4.00000004e-08,
"SPI","result",2.63539808,1e-06,0x16
"SPI","disable",2.6354004,4.00000004e-08,
"SPI","enable",2.6354056,3.99999999e-08,
"SPI","result",2.6354064,1e-06,0x16
"SPI","disable",2.63540872,3.99999999e-08,
"SPI","enable",2.63541392,4.00000004e-08,
"SPI","result",2.63541472,9.6e-07,0x75
"SPI","disable",2.63541704,3.99999994e-08,
"SPI","enable",2.6354222,3.99999999e-08,
"SPI","result",2.63542304,9.6e-07,0x04
"SPI","disable",2.63542532,4.00000004e-08,
"SPI","enable",2.63543052,4.00000004e-08,
"SPI","result",2.63543132,1e-06,0x04
"SPI","disable",2.63543364,3.99999994e-08,
"SPI","enable",2.63550956,3.99999999e-08,
"SPI","result",2.63551036,9.6e-07,0x15
"SPI","disable",2.63551268,3.99999994e-08,
"SPI","enable",2.63551784,3.99999999e-08,
"SPI","result",2.63551868,9.6e-07,0x18
"SPI","disable",2.63552096,3.99999999e-08,
"SPI","enable",2.63552616,4.00000004e-08,
"SPI","result",2.63552696,1e-06,0x18
"SPI","disable",2.63552928,3.99999994e-08,
"SPI","enable",2.63553448,4.00000004e-08,
"SPI","result",2.63553528,1e-06,0x75
"SPI","disable",2.6355376,3.99999999e-08,
"SPI","enable",2.6355428,3.99999994e-08,
"SPI","result",2.6355436,1e-06,0x02
"SPI","disable",2.63554592,3.99999999e-08,
"SPI","enable",2.63555112,3.99999999e-08,
"SPI","result",2.63555192,9.6e-07,0x02
"SPI","disable",2.63555424,3.99999999e-08,
"SPI","enable",2.63558304,3.99999994e-08,
"SPI","result",2.63558384,1e-06,0x15
"SPI","disable",2.63558616,4.00000004e-08,
"SPI","enable",2.63559136,4.00000004e-08,
"SPI","result",2.63559216,1e-06,0x18
"SPI","disable",2.63559448,4.00000004e-08,
"SPI","enable",2.63559968,4.00000004e-08,
"SPI","result",2.63560048,1e-06,0x18
"SPI","disable",2.6356028,3.99999994e-08,
"SPI","enable",2.635608,3.99999999e-08,
"SPI","result",2.6356088,9.6e-07,0x75
"SPI","disable",2.63561112,3.99999999e-08,
"SPI","enable",2.63561632,3.99999999e-08,
"SPI","result",2.63561712,9.6e-07,0x04
"SPI","disable",2.63561944,3.99999999e-08,
"SPI","enable",2.6356246,3.99999999e-08,
"SPI","result",2.63562544,9.6e-07,0x04
"SPI","disable",2.63562772,4.00000004e-08,
"SPI","enable",2.63566612,3.99999999e-08,
"SPI","result",2.63566692,1e-06,0x15
"SPI","disable",2.63566924,4.00000004e-08,
"SPI","enable",2.63567444,4.00000004e-08,
"SPI","result",2.63567524,1e-06,0x19
"SPI","disable",2.63567756,3.99999999e-08,
"SPI","enable",2.63568276,4.00000004e-08,
"SPI","result",2.63568356,9.6e-07,0x19
"SPI","disable",2.63568588,3.99999999e-08,
"SPI","enable",2.63569108,3.99999999e-08,
"SPI","result",2.63569188,9.6e-07,0x75
"SPI","disable",2.6356942,3.99999999e-08,
"SPI","enable",2.63569936,4.00000004e-08,
"SPI","result",2.6357002,9.6e-07,0x00
"SPI","disable",2.63570248,4.00000004e-08,
"SPI","enable",2.63570768,3.99999999e-08,
"SPI","result",2.63570848,1e-06,0x00
"SPI","disable",2.6357108,4.00000004e-08,
"SPI","enable",2.6357362,3.99999999e-08,
"SPI","result",2.635737,1e-06,0x15
"SPI","disable",2.63573932,4.00000004e-08,
"SPI","enable",2.63574452,4.00000004e-08,
"SPI","result",2.63574532,9.6e-07,0x19
"SPI","disable",2.63574764,3.99999999e-08,
"SPI","enable",2.6357528,3.99999994e-08,
"SPI","result",2.63575364,9.6e-07,0x19
"SPI","disable",2.63575592,4.00000004e-08,
"SPI","enable",2.63576112,3.99999999e-08,
"SPI","result",2.63576192,1e-06,0x75
"SPI","disable",2.63576424,3.99999999e-08,
"SPI","enable",2.63576944,4.00000004e-08,
"SPI","result",2.63577024,1e-06,0x01
"SPI","disable",2.63577256,4.00000004e-08,
"SPI","enable",2.63577776,3.99999999e-08,
"SPI","result",2.63577856,1e-06,0x01
"SPI","disable",2.63578088,4.00000004e-08,
"SPI","enable",2.63580628,3.99999999e-08,
"SPI","result",2.63580708,9.6e-07,0x15
"SPI","disable",2.6358094,4.00000004e-08,
"SPI","enable",2.63581456,3.99999999e-08,
"SPI","result",2.6358154,9.6e-07,0x19
"SPI","disable",2.63581768,3.99999999e-08,
"SPI","enable",2.63582288,3.99999999e-08,
"SPI","result",2.63582368,1e-06,0x19
"SPI","disable",2.635826,4.00000004e-08,
"SPI","enable",2.6358312,3.99999999e-08,
"SPI","result",2.635832,1e-06,0x75
"SPI","disable",2.63583432,3.99999999e-08,
"SPI","enable",2.63583952,3.99999999e-08,
"SPI","result",2.63584032,1e-06,0x02
"SPI","disable",2.63584264,4.00000004e-08,
"SPI","enable",2.63584784,4.00000004e-08,
"SPI","result",2.63584864,9.6e-07,0x02
"SPI","disable",2.63585096,4.00000004e-08,
"SPI","enable",2.63587632,4.00000004e-08,
"SPI","result",2.63587712,1e-06,0x15
"SPI","disable",2.63587944,3.99999994e-08,
"SPI","enable",2.63588464,3.99999999e-08,
"SPI","result",2.63588544,1e-06,0x19
"SPI","disable",2.63588776,3.99999999e-08,
"SPI","enable",2.63589296,3.99999999e-08,
"SPI","result",2.63589376,1e-06,0x19
"SPI","disable",2.63589608,3.99999999e-08,
"SPI","enable",2.63590128,3.99999999e-08,
"SPI","result",2.63590208,1e-06,0x75
"SPI","disable",2.6359044,3.99999999e-08,
"SPI","enable",2.6359096,3.99999994e-08,
"SPI","result",2.6359104,9.6e-07,0x03
"SPI","disable",2.63591272,4.00000004e-08,
"SPI","enable",2.63591792,4.00000004e-08,
"SPI","result",2.63591872,9.60000001e-07,0x03
"SPI","disable",2.635921,3.99999994e-08,
"SPI","enable",2.6359464,4.00000004e-08,
"SPI","result",2.6359472,1e-06,0x15
"SPI","disable",2.63594952,3.99999999e-08,
"SPI","enable",2.63595472,3.99999999e-08,
"SPI","result",2.63595552,1e-06,0x19
"SPI","disable",2.63595784,3.99999999e-08,
"SPI","enable",2.63596304,3.99999999e-08,
"SPI","result",2.63596384,9.6e-07,0x19
"SPI","disable",2.63596616,3.99999999e-08,
"SPI","enable",2.63597136,3.99999999e-08,
"SPI","result",2.63597216,9.6e-07,0x75
"SPI","disable",2.63597448,4.00000004e-08,
"SPI","enable",2.63597964,4.00000004e-08,
"SPI","result",2.63598048,9.6e-07,0x04
"SPI","disable",2.63598808,3.99999999e-08,
"SPI","enable",2.63599328,3.99999999e-08,
"SPI","result",2.63599408,1e-06,0x04
"SPI","disable",2.6359964,3.99999999e-08,
"SPI","enable",2.6360218,4.00000004e-08,
"SPI","result",2.6360226,9.6e-07,0x15
"SPI","disable",2.63602492,3.99999994e-08,
"SPI","enable",2.63603008,3.99999999e-08,
"SPI","result",2.63603092,9.6e-07,0x19
"SPI","disable",2.6360332,4.00000004e-08,
"SPI","enable",2.6360384,4.00000004e-08,
"SPI","result",2.63603924,9.6e-07,0x19
"SPI","disable",2.63604152,3.99999994e-08,
"SPI","enable",2.63604672,4.00000004e-08,
"SPI","result",2.63604752,1e-06,0x75
"SPI","disable",2.63604984,3.99999999e-08,
"SPI","enable",2.63605504,3.99999999e-08,
"SPI","result",2.63605584,1e-06,0x05
"SPI","disable",2.63605816,3.99999999e-08,
"SPI","enable",2.63606336,3.99999999e-08,
"SPI","result",2.63606416,1e-06,0x05
"SPI","disable",2.63606648,3.99999994e-08,
"SPI","enable",2.63609184,3.99999999e-08,
"SPI","result",2.63609268,9.6e-07,0x15
"SPI","disable",2.63609496,4.00000004e-08,
"SPI","enable",2.63610016,3.99999999e-08,
"SPI","result",2.63610096,1e-06,0x19
"SPI","disable",2.63610328,4.00000004e-08,
"SPI","enable",2.63610848,4.00000004e-08,
"SPI","result",2.63610928,1e-06,0x19
"SPI","disable",2.6361116,3.99999999e-08,
"SPI","enable",2.6361168,4.00000004e-08,
"SPI","result",2.6361176,1e-06,0x75
"SPI","disable",2.63611992,3.99999999e-08,
"SPI","enable",2.63612512,3.99999999e-08,
"SPI","result",2.63612592,1e-06,0x06
"SPI","disable",2.63612824,3.99999999e-08,
"SPI","enable",2.63613344,3.99999999e-08,
"SPI","result",2.63613424,9.6e-07,0x06
"SPI","disable",2.63613656,3.99999994e-08,
"SPI","enable",2.63617492,3.99999994e-08,
"SPI","result",2.63617572,1e-06,0x15
"SPI","disable",2.63617804,4.00000004e-08,
"SPI","enable",2.63618324,4.00000004e-08,
"SPI","result",2.63618404,1e-06,0x1A
"SPI","disable",2.63618636,3.99999999e-08,
"SPI","enable",2.63619156,4.00000004e-08,
"SPI","result",2.63619236,1e-06,0x1A
"SPI","disable",2.63619468,4.00000004e-08,
"SPI","enable",2.63619988,3.99999999e-08,
"SPI","result",2.63620068,9.6e-07,0x75
"SPI","disable",2.636203,3.99999999e-08,
"SPI","enable",2.6362082,4.00000004e-08,
"SPI","result",2.636209,9.6e-07,0x02
"SPI","disable",2.63621132,3.99999994e-08,
"SPI","enable",2.63621648,3.99999999e-08,
"SPI","result",2.63621732,9.6e-07,0x02
"SPI","disable",2.6362196,4.00000004e-08,
"SPI","enable",2.63624844,3.99999994e-08,
"SPI","result",2.63624924,1e-06,0x15
"SPI","disable",2.63625156,4.00000004e-08,
"SPI","enable",2.63625676,3.99999999e-08,
"SPI","result",2.63625756,1e-06,0x1A
"SPI","disable",2.63625988,3.99999999e-08,
"SPI","enable",2.63626508,4.00000004e-08,
"SPI","result",2.63626588,9.6e-07,0x1A
"SPI","disable",2.6362682,4.00000004e-08,
"SPI","enable",2.63627336,3.99999999e-08,
"SPI","result",2.6362742,9.6e-07,0x75
"SPI","disable",2.63627648,3.99999999e-08,
"SPI","enable",2.63628168,3.99999999e-08,
"SPI","result",2.63628248,1e-06,0x04
"SPI","disable",2.6362848,4.00000004e-08,
"SPI","enable",2.63629,3.99999999e-08,
"SPI","result",2.6362908,1e-06,0x04
"SPI","disable",2.63629312,4.00000004e-08,
"SPI","enable",2.63633152,3.99999999e-08,
"SPI","result",2.63633232,9.6e-07,0x15
"SPI","disable",2.63633464,3.99999999e-08,
"SPI","enable",2.63633984,3.99999999e-08,
"SPI","result",2.63634064,9.6e-07,0x1B
"SPI","disable",2.63634296,4.00000004e-08,
"SPI","enable",2.63634812,3.99999999e-08,
"SPI","result",2.63634896,9.6e-07,0x1B
"SPI","disable",2.63635124,3.99999994e-08,
"SPI","enable",2.63635644,3.99999999e-08,
"SPI","result",2.63635724,1e-06,0x75
"SPI","disable",2.63635956,4.00000004e-08,
"SPI","enable",2.63636476,3.99999994e-08,
"SPI","result",2.63636556,1e-06,0x00
"SPI","disable",2.63636788,4.00000004e-08,
"SPI","enable",2.63637308,4.00000004e-08,
"SPI","result",2.63637388,1e-06,0x00
"SPI","disable",2.6363762,3.99999999e-08,
"SPI","enable",2.63640156,4.00000004e-08,
"SPI","result",2.6364024,9.6e-07,0x15
"SPI","disable",2.63640468,3.99999999e-08,
"SPI","enable",2.63640988,3.99999999e-08,
"SPI","result",2.63641072,9.6e-07,0x1B
"SPI","disable",2.636413,3.99999999e-08,
"SPI","enable",2.6364182,3.99999999e-08,
"SPI","result",2.636419,1e-06,0x1B
"SPI","disable",2.63642132,3.99999994e-08,
"SPI","enable",2.63642652,3.99999999e-08,
"SPI","result",2.63642732,1e-06,0x75
"SPI","disable",2.63642964,4.00000004e-08,
"SPI","enable",2.63643484,3.99999994e-08,
"SPI","result",2.63643564,1e-06,0x01
"SPI","disable",2.63643796,4.00000004e-08,
"SPI","enable",2.63644316,4.00000004e-08,
"SPI","result",2.63644396,9.60000001e-07,0x01
"SPI","disable",2.63644628,3.99999999e-08,
"SPI","enable",2.63647164,4.00000004e-08,
"SPI","result",2.63647244,1e-06,0x15
"SPI","disable",2.63647476,3.99999999e-08,
"SPI","enable",2.63647996,3.99999999e-08,
"SPI","result",2.63648076,1e-06,0x1B
"SPI","disable",2.63648308,3.99999999e-08,
"SPI","enable",2.63648828,4.00000004e-08,
"SPI","result",2.63648908,1e-06,0x1B
"SPI","disable",2.6364914,3.99999994e-08,
"SPI","enable",2.6364966,3.99999999e-08,
"SPI","result",2.6364974,1e-06,0x75
"SPI","disable",2.63649972,3.99999999e-08,
"SPI","enable",2.63650492,3.99999994e-08,
"SPI","result",2.63650572,9.6e-07,0x02
"SPI","disable",2.63650804,4.00000004e-08,
"SPI","enable",2.6365132,4.00000004e-08,
"SPI","result",2.63651404,9.60000001e-07,0x02
"SPI","disable",2.63651632,3.99999999e-08,
"SPI","enable",2.63654172,4.00000004e-08,
"SPI","result",2.63654252,1e-06,0x15
"SPI","disable",2.63654484,4.00000004e-08,
"SPI","enable",2.63655004,3.99999999e-08,
"SPI","result",2.63655084,1e-06,0x1B
"SPI","disable",2.63655316,3.99999999e-08,
"SPI","enable",2.63655836,4.00000004e-08,
"SPI","result",2.63655916,9.6e-07,0x1B
"SPI","disable",2.63656148,3.99999994e-08,
"SPI","enable",2.63656668,3.99999999e-08,
"SPI","result",2.63656748,9.6e-07,0x75
"SPI","disable",2.63656976,4.00000004e-08,
"SPI","enable",2.63657496,4.00000004e-08,
"SPI","result",2.6365758,9.6e-07,0x03
"SPI","disable",2.63657808,3.99999994e-08,
"SPI","enable",2.63658328,4.00000004e-08,
"SPI","result",2.63658408,1e-06,0x03
"SPI","disable",2.6365864,3.99999999e-08,
"SPI","enable",2.6366118,4.00000004e-08,
"SPI","result",2.6366126,1e-06,0x15
"SPI","disable",2.63661492,4.00000004e-08,
"SPI","enable",2.63662012,3.99999999e-08,
"SPI","result",2.63662092,9.6e-07,0x1B
"SPI","disable",2.63662324,3.99999999e-08,
"SPI","enable",2.6366284,3.99999999e-08,
"SPI","result",2.63662924,9.6e-07,0x1B
"SPI","disable",2.63663152,4.00000004e-08,
"SPI","enable",2.63663672,3.99999999e-08,
"SPI","result",2.63663752,1e-06,0x75
"SPI","disable",2.63663984,4.00000004e-08,
"SPI","enable",2.63664504,4.00000004e-08,
"SPI","result",2.63664584,1e-06,0x04
"SPI","disable",2.63664816,3.99999999e-08,
"SPI","enable",2.63665336,4.00000004e-08,
"SPI","result",2.63665416,1e-06,0x04
"SPI","disable",2.63665648,3.99999999e-08,
"SPI","enable",2.63668188,4.00000004e-08,
"SPI","result",2.63668268,9.6e-07,0x15
"SPI","disable",2.63668496,3.99999999e-08,
"SPI","enable",2.63669016,3.99999999e-08,
"SPI","result",2.636691,9.6e-07,0x1B
"SPI","disable",2.63669328,3.99999999e-08,
"SPI","enable",2.63669848,3.99999999e-08,
"SPI","result",2.63669928,1e-06,0x1B
"SPI","disable",2.6367016,4.00000004e-08,
"SPI","enable",2.6367068,3.99999999e-08,
"SPI","result",2.6367076,1e-06,0x75
"SPI","disable",2.63670992,4.00000004e-08,
"SPI","enable",2.63671512,4.00000004e-08,
"SPI","result",2.63671592,1e-06,0x05
"SPI","disable",2.63671824,3.99999999e-08,
"SPI","enable",2.63672344,4.00000004e-08,
"SPI","result",2.63672424,9.6e-07,0x05
"SPI","disable",2.63672656,3.99999999e-08,
"SPI","enable",2.63675192,3.99999994e-08,
"SPI","result",2.63675272,1e-06,0x15
"SPI","disable",2.63675504,3.99999999e-08,
"SPI","enable",2.63676024,3.99999999e-08,
"SPI","result",2.63676104,9.99999999e-07,0x1B
"SPI","disable",2.63676336,3.99999999e-08,
"SPI","enable",2.63676856,3.99999999e-08,
"SPI","result",2.63676936,1e-06,0x1B
"SPI","disable",2.63677168,4.00000004e-08,
"SPI","enable",2.63677688,3.99999994e-08,
"SPI","result",2.63677768,1e-06,0x75
"SPI","disable",2.63678,4.00000004e-08,
"SPI","enable",2.6367852,4.00000004e-08,
"SPI","result",2.636786,9.6e-07,0x06
"SPI","disable",2.63678832,3.99999999e-08,
"SPI","enable",2.63679348,3.99999994e-08,
"SPI","result",2.63679432,9.6e-07,0x06
"SPI","disable",2.6367966,4.00000004e-08,
"SPI","enable",2.636835,3.99999999e-08,
"SPI","result",2.6368358,1e-06,0x15
"SPI","disable",2.63683812,3.99999994e-08,
"SPI","enable",2.63684332,3.99999999e-08,
"SPI","result",2.63684412,1e-06,0x1C
"SPI","disable",2.63684644,4.00000004e-08,
"SPI","enable",2.63685164,3.99999994e-08,
"SPI","result",2.63685244,9.6e-07,0x1C
"SPI","disable",2.63685476,4.00000004e-08,
"SPI","enable",2.63685996,4.00000004e-08,
"SPI","result",2.63686076,9.6e-07,0x75
"SPI","disable",2.63686308,3.99999999e-08,
"SPI","enable",2.63686824,3.99999994e-08,
"SPI","result",2.63686908,9.6e-07,0x02
"SPI","disable",2.63687136,3.99999999e-08,
"SPI","enable",2.63687656,3.99999999e-08,
"SPI","result",2.63687736,1e-06,0x02
"SPI","disable",2.63687968,3.99999999e-08,
"SPI","enable",2.63690852,4.00000004e-08,
"SPI","result",2.63690932,1e-06,0x15
"SPI","disable",2.63691164,3.99999994e-08,
"SPI","enable",2.63691684,3.99999999e-08,
"SPI","result",2.63691764,9.6e-07,0x1C
"SPI","disable",2.63691996,3.99999999e-08,
"SPI","enable",2.63692512,4.00000004e-08,
"SPI","result",2.63692596,9.6e-07,0x1C
"SPI","disable",2.63692824,3.99999994e-08,
"SPI","enable",2.63693344,4.00000004e-08,
"SPI","result",2.63693424,1e-06,0x75
"SPI","disable",2.63693656,3.99999999e-08,
"SPI","enable",2.63694176,3.99999994e-08,
"SPI","result",2.63694256,1e-06,0x04
"SPI","disable",2.63694488,3.99999999e-08,
"SPI","enable",2.63695008,3.99999999e-08,
"SPI","result",2.63695088,9.99999999e-07,0x04
"SPI","disable",2.6369532,3.99999994e-08,
"SPI","enable",2.63703516,4.00000004e-08,
"SPI","result",2.63703596,1e-06,0x15
"SPI","disable",2.63703828,3.99999994e-08,
"SPI","enable",2.63704348,4.00000004e-08,
"SPI","result",2.63704428,9.6e-07,0x1E
"SPI","disable",2.6370466,3.99999999e-08,
"SPI","enable",2.63705176,4.00000004e-08,
"SPI","result",2.6370526,9.6e-07,0x1E
"SPI","disable",2.63705488,3.99999999e-08,
"SPI","enable",2.63706008,4.00000004e-08,
"SPI","result",2.63706088,1e-06,0x75
"SPI","disable",2.6370632,3.99999999e-08,
"SPI","enable",2.6370684,3.99999999e-08,
"SPI","result",2.6370692,1e-06,0x02
"SPI","disable",2.63707152,3.99999999e-08,
"SPI","enable",2.63707672,3.99999999e-08,
"SPI","result",2.63707752,1e-06,0x02
"SPI","disable",2.63707984,3.99999994e-08,
"SPI","enable",2.63710864,3.99999999e-08,
"SPI","result",2.63710948,9.6e-07,0x15
"SPI","disable",2.63711176,4.00000004e-08,
"SPI","enable",2.63711696,3.99999994e-08,
"SPI","result",2.63711776,1e-06,0x1E
"SPI","disable",2.63712008,4.00000004e-08,
"SPI","enable",2.63712528,4.00000004e-08,
"SPI","result",2.63712608,1e-06,0x1E
"SPI","disable",2.6371284,3.99999999e-08,
"SPI","enable",2.6371336,4.00000004e-08,
"SPI","result",2.6371344,1e-06,0x75
"SPI","disable",2.63713672,4.00000004e-08,
"SPI","enable",2.63714192,3.99999999e-08,
"SPI","result",2.63714272,1e-06,0x04
"SPI","disable",2.63714504,3.99999999e-08,
"SPI","enable",2.63715024,4.00000004e-08,
"SPI","result",2.63715104,9.6e-07,0x04
"SPI","disable",2.63715336,3.99999994e-08,
"SPI","enable",2.63719172,3.99999994e-08,
"SPI","result",2.63719252,1e-06,0x15
"SPI","disable",2.63719484,4.00000004e-08,
"SPI","enable",2.63720004,3.99999999e-08,
"SPI","result",2.63720084,9.99999999e-07,0x1F
"SPI","disable",2.63720316,3.99999999e-08,
"SPI","enable",2.63720836,4.00000004e-08,
"SPI","result",2.63720916,1e-06,0x1F
"SPI","disable",2.63721148,4.00000004e-08,
"SPI","enable",2.63721668,3.99999999e-08,
"SPI","result",2.63721748,1e-06,0x75
"SPI","disable",2.6372198,4.00000004e-08,
"SPI","enable",2.637225,4.00000004e-08,
"SPI","result",2.6372258,9.6e-07,0x00
"SPI","disable",2.63722812,3.99999994e-08,
"SPI","enable",2.63723328,3.99999999e-08,
"SPI","result",2.63723412,9.6e-07,0x00
"SPI","disable",2.6372364,4.00000004e-08,
"SPI","enable",2.6372618,3.99999994e-08,
"SPI","result",2.6372626,1e-06,0x15
"SPI","disable",2.63726492,4.00000004e-08,
"SPI","enable",2.63727012,3.99999999e-08,
"SPI","result",2.63727092,9.99999999e-07,0x1F
"SPI","disable",2.63727324,3.99999999e-08,
"SPI","enable",2.63727844,4.00000004e-08,
"SPI","result",2.63727924,9.6e-07,0x1F
"SPI","disable",2.63728156,4.00000004e-08,
"SPI","enable",2.63728676,3.99999999e-08,
"SPI","result",2.63728756,9.6e-07,0x75
"SPI","disable",2.63728988,4.00000004e-08,
"SPI","enable",2.63729504,3.99999999e-08,
"SPI","result",2.63729588,9.6e-07,0x01
"SPI","disable",2.63729816,4.00000004e-08,
"SPI","enable",2.63730336,3.99999994e-08,
"SPI","result",2.63730416,1e-06,0x01
"SPI","disable",2.63730648,4.00000004e-08,
"SPI","enable",2.63733188,3.99999994e-08,
"SPI","result",2.63733268,1e-06,0x15
"SPI","disable",2.637335,3.99999999e-08,
"SPI","enable",2.6373402,3.99999999e-08,
"SPI","result",2.637341,9.6e-07,0x1F
"SPI","disable",2.63734332,3.99999999e-08,
"SPI","enable",2.63734848,3.99999999e-08,
"SPI","result",2.63734932,9.6e-07,0x1F
"SPI","disable",2.6373516,3.99999999e-08,
"SPI","enable",2.6373568,3.99999999e-08,
"SPI","result",2.6373576,1e-06,0x75
"SPI","disable",2.63735992,3.99999994e-08,
"SPI","enable",2.63736512,3.99999999e-08,
"SPI","result",2.63736592,1e-06,0x02
"SPI","disable",2.63736824,4.00000004e-08,
"SPI","enable",2.63737344,3.99999994e-08,
"SPI","result",2.63737424,1e-06,0x02
"SPI","disable",2.63737656,4.00000004e-08,
"SPI","enable",2.63740196,3.99999994e-08,
"SPI","result",2.63740276,9.6e-07,0x15
"SPI","disable",2.63740508,3.99999999e-08,
"SPI","enable",2.63741024,4.00000004e-08,
"SPI","result",2.63741108,9.6e-07,0x1F
"SPI","disable",2.63741336,3.99999999e-08,
"SPI","enable",2.63741856,3.99999999e-08,
"SPI","result",2.63741936,1e-06,0x1F
"SPI","disable",2.63742168,3.99999999e-08,
"SPI","enable",2.63742688,3.99999999e-08,
"SPI","result",2.63742768,1e-06,0x75
"SPI","disable",2.63743,3.99999994e-08,
"SPI","enable",2.6374352,3.99999999e-08,
"SPI","result",2.637436,1e-06,0x03
"SPI","disable",2.63743832,4.00000004e-08,
"SPI","enable",2.63744352,3.99999994e-08,
"SPI","result",2.63744432,9.6e-07,0x03
"SPI","disable",2.63744664,4.00000004e-08,
"SPI","enable",2.637472,4.00000004e-08,
"SPI","result",2.6374728,1e-06,0x15
"SPI","disable",2.63747512,3.99999999e-08,
"SPI","enable",2.63748032,4.00000004e-08,
"SPI","result",2.63748112,1e-06,0x1F
"SPI","disable",2.63748344,4.00000004e-08,
"SPI","enable",2.63748864,3.99999999e-08,
"SPI","result",2.63748944,1e-06,0x1F
"SPI","disable",2.63749176,3.99999999e-08,
"SPI","enable",2.63749696,4.00000004e-08,
"SPI","result",2.63749776,1e-06,0x75
"SPI","disable",2.63750008,3.99999994e-08,
"SPI","enable",2.63750528,3.99999999e-08,
"SPI","result",2.63750608,9.6e-07,0x04
"SPI","disable",2.6375084,3.99999999e-08,
"SPI","enable",2.63751356,4.00000004e-08,
"SPI","result",2.6375144,9.6e-07,0x04
"SPI","disable",2.63751668,3.99999994e-08,
"SPI","enable",2.63754208,4.00000004e-08,
"SPI","result",2.63754288,1e-06,0x15
"SPI","disable",2.6375452,3.99999999e-08,
"SPI","enable",2.6375504,4.00000004e-08,
"SPI","result",2.6375512,1e-06,0x1F
"SPI","disable",2.63755352,4.00000004e-08,
"SPI","enable",2.63755872,3.99999999e-08,
"SPI","result",2.63755952,9.6e-07,0x1F
"SPI","disable",2.63756184,3.99999999e-08,
"SPI","enable",2.63756704,4.00000004e-08,
"SPI","result",2.63756784,9.6e-07,0x75
"SPI","disable",2.63757016,3.99999994e-08,
"SPI","enable",2.63757532,3.99999999e-08,
"SPI","result",2.63757616,9.6e-07,0x05
"SPI","disable",2.63757844,4.00000004e-08,
"SPI","enable",2.63758364,4.00000004e-08,
"SPI","result",2.63758444,1e-06,0x05
"SPI","disable",2.63758676,3.99999994e-08,
"SPI","enable",2.63761216,3.99999999e-08,
"SPI","result",2.63761296,1e-06,0x15
"SPI","disable",2.63761528,3.99999999e-08,
"SPI","enable",2.63762048,3.99999999e-08,
"SPI","result",2.63762128,9.6e-07,0x1F
"SPI","disable",2.6376236,4.00000004e-08,
"SPI","enable",2.6376288,4.00000004e-08,
"SPI","result",2.6376296,9.6e-07,0x1F
"SPI","disable",2.63763188,3.99999999e-08,
"SPI","enable",2.63763708,3.99999999e-08,
"SPI","result",2.63763792,9.6e-07,0x75
"SPI","disable",2.6376402,4.00000004e-08,
"SPI","enable",2.6376454,4.00000004e-08,
"SPI","result",2.6376462,1e-06,0x06
"SPI","disable",2.63764852,4.00000004e-08,
"SPI","enable",2.63765372,4.00000004e-08,
"SPI","result",2.63765452,1e-06,0x06
"SPI","disable",2.63765684,3.99999999e-08,
"SPI","enable",2.63769524,3.99999999e-08,
"SPI","result",2.63769604,9.6e-07,0x15
"SPI","disable",2.63769836,4.00000004e-08,
"SPI","enable",2.63770352,3.99999999e-08,
"SPI","result",2.63770436,9.6e-07,0x20
"SPI","disable",2.63770664,3.99999994e-08,
"SPI","enable",2.63771184,3.99999999e-08,
"SPI","result",2.63771264,1e-06,0x20
"SPI","disable",2.63771496,4.00000004e-08,
"SPI","enable",2.63772016,3.99999994e-08,
"SPI","result",2.63772096,1e-06,0x75
"SPI","disable",2.63772328,4.00000004e-08,
"SPI","enable",2.63772848,4.00000004e-08,
"SPI","result",2.63772928,1e-06,0x02
"SPI","disable",2.6377316,3.99999999e-08,
"SPI","enable",2.6377368,4.00000004e-08,
"SPI","result",2.6377376,1e-06,0x02
"SPI","disable",2.63773992,4.00000004e-08,
"SPI","enable",2.63776872,3.99999999e-08,
"SPI","result",2.63776956,9.6e-07,0x15
"SPI","disable",2.63777184,3.99999999e-08,
"SPI","enable",2.63777704,4.00000004e-08,
"SPI","result",2.63777784,1e-06,0x20
"SPI","disable",2.63778016,3.99999994e-08,
"SPI","enable",2.63778536,3.99999999e-08,
"SPI","result",2.63778616,1e-06,0x20
"SPI","disable",2.63778848,3.99999999e-08,
"SPI","enable",2.63779368,3.99999999e-08,
"SPI","result",2.63779448,1e-06,0x75
"SPI","disable",2.6377968,4.00000004e-08,
"SPI","enable",2.637802,3.99999999e-08,
"SPI","result",2.6378028,9.6e-07,0x04
"SPI","disable",2.63780512,3.99999999e-08,
"SPI","enable",2.63781032,4.00000004e-08,
"SPI","result",2.63781112,9.6e-07,0x04
"SPI","disable",2.6378134,3.99999999e-08,
"SPI","enable",2.6378518,4.00000004e-08,
"SPI","result",2.6378526,1e-06,0x15
"SPI","disable",2.63785492,3.99999994e-08,
"SPI","enable",2.63786012,3.99999999e-08,
"SPI","result",2.63786092,1e-06,0x21
"SPI","disable",2.63786324,3.99999999e-08,
"SPI","enable",2.63786844,3.99999994e-08,
"SPI","result",2.63786924,1e-06,0x21
"SPI","disable",2.63787156,4.00000004e-08,
"SPI","enable",2.63787676,3.99999999e-08,
"SPI","result",2.63787756,9.6e-07,0x75
"SPI","disable",2.63787988,3.99999999e-08,
"SPI","enable",2.63788504,3.99999999e-08,
"SPI","result",2.63788588,9.6e-07,0x00
"SPI","disable",2.63788816,3.99999999e-08,
"SPI","enable",2.63789336,3.99999999e-08,
"SPI","result",2.63789416,9.99999999e-07,0x00
"SPI","disable",2.63789648,3.99999994e-08,
"SPI","enable",2.63792188,4.00000004e-08,
"SPI","result",2.63792268,1e-06,0x15
"SPI","disable",2.637925,3.99999994e-08,
"SPI","enable",2.6379302,4.00000004e-08,
"SPI","result",2.637931,9.6e-07,0x21
"SPI","disable",2.63793332,3.99999999e-08,
"SPI","enable",2.63793852,3.99999994e-08,
"SPI","result",2.63793932,9.6e-07,0x21
"SPI","disable",2.63794164,3.99999999e-08,
"SPI","enable",2.6379468,4.00000004e-08,
"SPI","result",2.63794764,9.6e-07,0x75
"SPI","disable",2.63794992,3.99999999e-08,
"SPI","enable",2.63795512,3.99999999e-08,
"SPI","result",2.63795592,1e-06,0x01
"SPI","disable",2.63795824,3.99999999e-08,
"SPI","enable",2.63796344,3.99999999e-08,
"SPI","result",2.63796424,1e-06,0x01
"SPI","disable",2.63796656,3.99999994e-08,
"SPI","enable",2.63799196,4.00000004e-08,
"SPI","result",2.63799276,9.6e-07,0x15
"SPI","disable",2.63799508,3.99999994e-08,
"SPI","enable",2.63800024,3.99999999e-08,
"SPI","result",2.63800108,9.6e-07,0x21
"SPI","disable",2.63800336,4.00000004e-08,
"SPI","enable",2.63800856,4.00000004e-08,
"SPI","result",2.6380094,9.6e-07,0x21
"SPI","disable",2.63801168,3.99999999e-08,
"SPI","enable",2.63801688,4.00000004e-08,
"SPI","result",2.63801768,1e-06,0x75
"SPI","disable",2.63802,3.99999999e-08,
"SPI","enable",2.6380252,3.99999999e-08,
"SPI","result",2.638026,1e-06,0x02
"SPI","disable",2.63802832,3.99999999e-08,
"SPI","enable",2.63803956,3.99999999e-08,
"SPI","result",2.6380404,9.6e-07,0x02
"SPI","disable",2.63804268,3.99999999e-08,
"SPI","enable",2.63806808,3.99999999e-08,
"SPI","result",2.63806888,1e-06,0x15
"SPI","disable",2.6380712,3.99999994e-08,
"SPI","enable",2.6380764,3.99999999e-08,
"SPI","result",2.6380772,1e-06,0x21
"SPI","disable",2.63807952,4.00000004e-08,
"SPI","enable",2.63808472,3.99999994e-08,
"SPI","result",2.63808552,9.6e-07,0x21
"SPI","disable",2.63808784,4.00000004e-08,
"SPI","enable",2.638093,3.99999999e-08,
"SPI","result",2.63809384,9.6e-07,0x75
"SPI","disable",2.63809612,3.99999999e-08,
"SPI","enable",2.63810132,3.99999994e-08,
"SPI","result",2.63810216,9.6e-07,0x03
"SPI","disable",2.63810444,3.99999999e-08,
"SPI","enable",2.63810964,3.99999999e-08,
"SPI","result",2.63811044,9.99999999e-07,0x03
"SPI","disable",2.63811276,3.99999999e-08,
"SPI","enable",2.63813816,4.00000004e-08,
"SPI","result",2.63813896,9.6e-07,0x15
"SPI","disable",2.63814128,3.99999994e-08,
"SPI","enable",2.63814648,3.99999999e-08,
"SPI","result",2.63814728,9.6e-07,0x21
"SPI","disable",2.6381496,3.99999999e-08,
"SPI","enable",2.63815476,4.00000004e-08,
"SPI","result",2.6381556,9.6e-07,0x21
"SPI","disable",2.63815788,3.99999994e-08,
"SPI","enable",2.63816308,4.00000004e-08,
"SPI","result",2.63816388,1e-06,0x75
"SPI","disable",2.6381662,3.99999999e-08,
"SPI","enable",2.6381714,3.99999994e-08,
"SPI","result",2.6381722,1e-06,0x04
"SPI","disable",2.63817452,3.99999999e-08,
"SPI","enable",2.63817972,3.99999999e-08,
"SPI","result",2.63818052,9.99999999e-07,0x04
"SPI","disable",2.63818284,3.99999999e-08,
"SPI","enable",2.63820824,4.00000004e-08,
"SPI","result",2.63820904,9.6e-07,0x15
"SPI","disable",2.63821132,4.00000004e-08,
"SPI","enable",2.63821652,3.99999999e-08,
"SPI","result",2.63821736,9.6e-07,0x21
"SPI","disable",2.63821964,4.00000004e-08,
"SPI","enable",2.63822484,4.00000004e-08,
"SPI","result",2.63822564,1e-06,0x21
"SPI","disable",2.63822796,3.99999994e-08,
"SPI","enable",2.63823316,4.00000004e-08,
"SPI","result",2.63823396,1e-06,0x75
"SPI","disable",2.63823628,3.99999999e-08,
"SPI","enable",2.63824148,3.99999994e-08,
"SPI","result",2.63824228,1e-06,0x05
"SPI","disable",2.6382446,3.99999999e-08,
"SPI","enable",2.6382498,3.99999999e-08,
"SPI","result",2.6382506,9.6e-07,0x05
"SPI","disable",2.63825292,3.99999999e-08,
"SPI","enable",2.63827828,3.99999999e-08,
"SPI","result",2.63827908,1e-06,0x15
"SPI","disable",2.6382814,4.00000004e-08,
"SPI","enable",2.6382866,3.99999999e-08,
"SPI","result",2.6382874,1e-06,0x21
"SPI","disable",2.63828972,4.00000004e-08,
"SPI","enable",2.63829492,4.00000004e-08,
"SPI","result",2.63829572,1e-06,0x21
"SPI","disable",2.63829804,3.99999999e-08,
"SPI","enable",2.63830324,4.00000004e-08,
"SPI","result",2.63830404,1e-06,0x75
"SPI","disable",2.63830636,3.99999999e-08,
"SPI","enable",2.63831156,3.99999999e-08,
"SPI","result",2.63831236,9.6e-07,0x06
"SPI","disable",2.63831468,3.99999999e-08,
"SPI","enable",2.63831984,4.00000004e-08,
"SPI","result",2.63832068,9.6e-07,0x06
"SPI","disable",2.63832296,4.00000004e-08,
"SPI","enable",2.63836136,3.99999994e-08,
"SPI","result",2.63836216,1e-06,0x15
"SPI","disable",2.63836448,4.00000004e-08,
"SPI","enable",2.63836968,4.00000004e-08,
"SPI","result",2.63837048,1e-06,0x22
"SPI","disable",2.6383728,3.99999999e-08,
"SPI","enable",2.638378,4.00000004e-08,
"SPI","result",2.6383788,9.6e-07,0x22
"SPI","disable",2.63838112,3.99999999e-08,
"SPI","enable",2.63838632,3.99999999e-08,
"SPI","result",2.63838712,9.6e-07,0x75
"SPI","disable",2.63838944,3.99999999e-08,
"SPI","enable",2.6383946,4.00000004e-08,
"SPI","result",2.63839544,9.6e-07,0x02
"SPI","disable",2.63839772,4.00000004e-08,
"SPI","enable",2.63840292,3.99999999e-08,
"SPI","result",2.63840372,1e-06,0x02
"SPI","disable",2.63840604,4.00000004e-08,
"SPI","enable",2.63843488,3.99999994e-08,
"SPI","result",2.63843568,1e-06,0x15
"SPI","disable",2.638438,4.00000004e-08,
"SPI","enable",2.6384432,3.99999999e-08,
"SPI","result",2.638444,9.6e-07,0x22
"SPI","disable",2.63844632,3.99999999e-08,
"SPI","enable",2.63845148,3.99999994e-08,
"SPI","result",2.63845232,9.6e-07,0x22
"SPI","disable",2.6384546,3.99999999e-08,
"SPI","enable",2.6384598,3.99999999e-08,
"SPI","result",2.6384606,9.99999999e-07,0x75
"SPI","disable",2.63846292,3.99999999e-08,
"SPI","enable",2.63846812,3.99999999e-08,
"SPI","result",2.63846892,1e-06,0x04
"SPI","disable",2.63847124,4.00000004e-08,
"SPI","enable",2.63847644,3.99999999e-08,
"SPI","result",2.63847724,1e-06,0x04
"SPI","disable",2.63847956,4.00000004e-08,
"SPI","enable",2.63855544,3.99999999e-08,
"SPI","result",2.63855624,1e-06,0x15
"SPI","disable",2.63855856,4.00000004e-08,
"SPI","enable",2.63856376,3.99999999e-08,
"SPI","result",2.63856456,1e-06,0x24
"SPI","disable",2.63856688,4.00000004e-08,
"SPI","enable",2.63857208,4.00000004e-08,
"SPI","result",2.63857288,1e-06,0x24
"SPI","disable",2.6385752,3.99999999e-08,
"SPI","enable",2.6385804,4.00000004e-08,
"SPI","result",2.6385812,9.6e-07,0x75
"SPI","disable",2.63858352,3.99999999e-08,
"SPI","enable",2.63858872,3.99999999e-08,
"SPI","result",2.63858952,9.6e-07,0x02
"SPI","disable",2.63859184,3.99999999e-08,
"SPI","enable",2.638597,4.00000004e-08,
"SPI","result",2.63859784,9.6e-07,0x02
"SPI","disable",2.63860012,4.00000004e-08,
"SPI","enable",2.63862896,3.99999999e-08,
"SPI","result",2.63862976,1e-06,0x15
"SPI","disable",2.63863208,4.00000004e-08,
"SPI","enable",2.63863728,3.99999994e-08,
"SPI","result",2.63863808,9.6e-07,0x24
"SPI","disable",2.6386404,4.00000004e-08,
"SPI","enable",2.6386456,4.00000004e-08,
"SPI","result",2.6386464,9.60000001e-07,0x24
"SPI","disable",2.63864872,3.99999999e-08,
"SPI","enable",2.63865388,3.99999994e-08,
"SPI","result",2.63865472,9.6e-07,0x75
"SPI","disable",2.638657,4.00000004e-08,
"SPI","enable",2.6386622,3.99999999e-08,
"SPI","result",2.638663,1e-06,0x04
"SPI","disable",2.63866532,3.99999999e-08,
"SPI","enable",2.63867052,4.00000004e-08,
"SPI","result",2.63867132,1e-06,0x04
"SPI","disable",2.63867364,4.00000004e-08,
"SPI","enable",2.63871204,3.99999994e-08,
"SPI","result",2.63871284,9.6e-07,0x15
"SPI","disable",2.63871516,4.00000004e-08,
"SPI","enable",2.63872036,3.99999999e-08,
"SPI","result",2.63872116,9.60000001e-07,0x25
"SPI","disable",2.63872344,3.99999999e-08,
"SPI","enable",2.63872864,3.99999994e-08,
"SPI","result",2.63872948,9.6e-07,0x25
"SPI","disable",2.63873176,3.99999999e-08,
"SPI","enable",2.63873696,3.99999999e-08,
"SPI","result",2.63873776,1e-06,0x75
"SPI","disable",2.63874008,3.99999999e-08,
"SPI","enable",2.63874528,3.99999999e-08,
"SPI","result",2.63874608,1e-06,0x00
"SPI","disable",2.6387484,4.00000004e-08,
"SPI","enable",2.6387536,3.99999999e-08,
"SPI","result",2.6387544,1e-06,0x00
"SPI","disable",2.63875672,4.00000004e-08,
"SPI","enable",2.63878208,4.00000004e-08,
"SPI","result",2.63878292,9.6e-07,0x15
"SPI","disable",2.6387852,3.99999994e-08,
"SPI","enable",2.6387904,4.00000004e-08,
"SPI","result",2.6387912,1e-06,0x25
"SPI","disable",2.63879352,3.99999999e-08,
"SPI","enable",2.63879872,3.99999994e-08,
"SPI","result",2.63879952,1e-06,0x25
"SPI","disable",2.63880184,3.99999999e-08,
"SPI","enable",2.63880704,3.99999999e-08,
"SPI","result",2.63880784,1e-06,0x75
"SPI","disable",2.63881016,3.99999999e-08,
"SPI","enable",2.63881536,3.99999999e-08,
"SPI","result",2.63881616,1e-06,0x01
"SPI","disable",2.63881848,4.00000004e-08,
"SPI","enable",2.63882368,3.99999999e-08,
"SPI","result",2.63882448,9.6e-07,0x01
"SPI","disable",2.6388268,4.00000004e-08,
"SPI","enable",2.63885216,4.00000004e-08,
"SPI","result",2.63885296,1e-06,0x15
"SPI","disable",2.63885528,3.99999994e-08,
"SPI","enable",2.63886048,4.00000004e-08,
"SPI","result",2.63886128,1e-06,0x25
"SPI","disable",2.6388636,3.99999999e-08,
"SPI","enable",2.6388688,3.99999999e-08,
"SPI","result",2.6388696,1e-06,0x25
"SPI","disable",2.63887192,3.99999999e-08,
"SPI","enable",2.63887712,3.99999999e-08,
"SPI","result",2.63887792,9.6e-07,0x75
"SPI","disable",2.63888024,3.99999994e-08,
"SPI","enable",2.63888544,3.99999999e-08,
"SPI","result",2.63888624,9.6e-07,0x02
"SPI","disable",2.63888856,4.00000004e-08,
"SPI","enable",2.63889372,4.00000004e-08,
"SPI","result",2.63889456,9.6e-07,0x02
"SPI","disable",2.63889684,3.99999994e-08,
"SPI","enable",2.63892224,4.00000004e-08,
"SPI","result",2.63892304,1e-06,0x15
"SPI","disable",2.63892536,3.99999999e-08,
"SPI","enable",2.63893056,4.00000004e-08,
"SPI","result",2.63893136,1e-06,0x25
"SPI","disable",2.63893368,3.99999999e-08,
"SPI","enable",2.63893888,3.99999999e-08,
"SPI","result",2.63893968,9.6e-07,0x25
"SPI","disable",2.638942,3.99999999e-08,
"SPI","enable",2.63894716,4.00000004e-08,
"SPI","result",2.638948,9.6e-07,0x75
"SPI","disable",2.63895028,4.00000004e-08,
"SPI","enable",2.63895548,3.99999999e-08,
"SPI","result",2.63895628,1e-06,0x03
"SPI","disable",2.6389586,3.99999999e-08,
"SPI","enable",2.6389638,4.00000004e-08,
"SPI","result",2.6389646,1e-06,0x03
"SPI","disable",2.63896692,3.99999994e-08,
"SPI","enable",2.63899232,4.00000004e-08,
"SPI","result",2.63899312,9.6e-07,0x15
"SPI","disable",2.63899544,3.99999999e-08,
"SPI","enable",2.63900064,4.00000004e-08,
"SPI","result",2.63900144,9.6e-07,0x25
"SPI","disable",2.63900376,3.99999999e-08,
"SPI","enable",2.63900892,3.99999999e-08,
"SPI","result",2.63900976,9.6e-07,0x25
"SPI","disable",2.63901204,3.99999999e-08,
"SPI","enable",2.63901724,4.00000004e-08,
"SPI","result",2.63901804,1e-06,0x75
"SPI","disable",2.63902036,4.00000004e-08,
"SPI","enable",2.63902556,3.99999999e-08,
"SPI","result",2.63902636,1e-06,0x04
"SPI","disable",2.63902868,4.00000004e-08,
"SPI","enable",2.63903388,4.00000004e-08,
"SPI","result",2.63903468,1e-06,0x04
"SPI","disable",2.639037,3.99999994e-08,
"SPI","enable",2.63906844,4.00000004e-08,
"SPI","result",2.63906924,1e-06,0x15
"SPI","disable",2.63907156,3.99999994e-08,
"SPI","enable",2.63907676,3.99999999e-08,
"SPI","result",2.63907756,1e-06,0x25
"SPI","disable",2.63907988,3.99999999e-08,
"SPI","enable",2.63908508,3.99999994e-08,
"SPI","result",2.63908588,9.6e-07,0x25
"SPI","disable",2.6390882,3.99999999e-08,
"SPI","enable",2.6390934,3.99999999e-08,
"SPI","result",2.6390942,9.6e-07,0x75
"SPI","disable",2.63909652,3.99999999e-08,
"SPI","enable",2.63910168,3.99999999e-08,
"SPI","result",2.63910252,9.6e-07,0x05
"SPI","disable",2.6391048,3.99999999e-08,
"SPI","enable",2.63911,3.99999999e-08,
"SPI","result",2.6391108,1e-06,0x05
"SPI","disable",2.63911312,3.99999999e-08,
"SPI","enable",2.63913852,4.00000004e-08,
"SPI","result",2.63913932,1e-06,0x15
"SPI","disable",2.63914164,3.99999994e-08,
"SPI","enable",2.63914684,4.00000004e-08,
"SPI","result",2.63914764,9.6e-07,0x25
"SPI","disable",2.63914996,3.99999999e-08,
"SPI","enable",2.63915512,4.00000004e-08,
"SPI","result",2.63915596,9.6e-07,0x25
"SPI","disable",2.63915824,3.99999999e-08,
"SPI","enable",2.63916344,4.00000004e-08,
"SPI","result",2.63916424,1e-06,0x75
"SPI","disable",2.63916656,3.99999999e-08,
"SPI","enable",2.63917176,3.99999999e-08,
"SPI","result",2.63917256,1e-06,0x06
"SPI","disable",2.63917488,3.99999999e-08,
"SPI","enable",2.63918008,3.99999999e-08,
"SPI","result",2.63918088,1e-06,0x06
"SPI","disable",2.6391832,3.99999994e-08,
"SPI","enable",2.6392216,4.00000004e-08,
"SPI","result",2.6392224,9.6e-07,0x15
"SPI","disable",2.63922472,3.99999999e-08,
"SPI","enable",2.63922988,4.00000004e-08,
"SPI","result",2.63923072,9.6e-07,0x26
"SPI","disable",2.639233,4.00000004e-08,
"SPI","enable",2.6392382,4.00000004e-08,
"SPI","result",2.639239,1e-06,0x26
"SPI","disable",2.63924132,3.99999999e-08,
"SPI","enable",2.63924652,3.99999999e-08,
"SPI","result",2.63924732,1e-06,0x75
"SPI","disable",2.63924964,3.99999999e-08,
"SPI","enable",2.63925484,4.00000004e-08,
"SPI","result",2.63925564,1e-06,0x02
"SPI","disable",2.63925796,3.99999999e-08,
"SPI","enable",2.63926316,3.99999999e-08,
"SPI","result",2.63926396,1e-06,0x02
"SPI","disable",2.63926628,3.99999994e-08,
"SPI","enable",2.63929508,3.99999994e-08,
"SPI","result",2.63929588,1e-06,0x15
"SPI","disable",2.6392982,4.00000004e-08,
"SPI","enable",2.6393034,3.99999999e-08,
"SPI","result",2.6393042,1e-06,0x26
"SPI","disable",2.63930652,3.99999999e-08,
"SPI","enable",2.63931172,4.00000004e-08,
"SPI","result",2.63931252,1e-06,0x26
"SPI","disable",2.63931484,4.00000004e-08,
"SPI","enable",2.63932004,3.99999999e-08,
"SPI","result",2.63932084,1e-06,0x75
"SPI","disable",2.63932316,4.00000004e-08,
"SPI","enable",2.63932836,4.00000004e-08,
"SPI","result",2.63932916,9.6e-07,0x04
"SPI","disable",2.63933148,3.99999994e-08,
"SPI","enable",2.63933664,3.99999999e-08,
"SPI","result",2.63933748,9.6e-07,0x04
"SPI","disable",2.63933976,4.00000004e-08,
"SPI","enable",2.63937816,3.99999999e-08,
"SPI","result",2.63937896,1e-06,0x15
"SPI","disable",2.63938128,4.00000004e-08,
"SPI","enable",2.63938648,3.99999999e-08,
"SPI","result",2.63938728,1e-06,0x27
"SPI","disable",2.6393896,3.99999999e-08,
"SPI","enable",2.6393948,3.99999999e-08,
"SPI","result",2.6393956,1e-06,0x27
"SPI","disable",2.63939792,4.00000004e-08,
"SPI","enable",2.63940312,4.00000004e-08,
"SPI","result",2.63940392,9.6e-07,0x75
"SPI","disable",2.63940624,4.00000004e-08,
"SPI","enable",2.6394114,3.99999999e-08,
"SPI","result",2.63941224,9.6e-07,0x00
"SPI","disable",2.63941452,4.00000004e-08,
"SPI","enable",2.63941972,4.00000004e-08,
"SPI","result",2.63942052,1e-06,0x00
"SPI","disable",2.63942284,4.00000004e-08,
"SPI","enable",2.63944824,3.99999999e-08,
"SPI","result",2.63944904,1e-06,0x15
"SPI","disable",2.63945136,3.99999999e-08,
"SPI","enable",2.63945656,3.99999999e-08,
"SPI","result",2.63945736,9.6e-07,0x27
"SPI","disable",2.63945968,4.00000004e-08,
"SPI","enable",2.63946488,3.99999999e-08,
"SPI","result",2.63946568,9.6e-07,0x27
"SPI","disable",2.639468,4.00000004e-08,
"SPI","enable",2.63947316,3.99999999e-08,
"SPI","result",2.639474,9.6e-07,0x75
"SPI","disable",2.63947628,3.99999999e-08,
"SPI","enable",2.63948148,3.99999994e-08,
"SPI","result",2.63948228,1e-06,0x01
"SPI","disable",2.6394846,4.00000004e-08,
"SPI","enable",2.6394898,3.99999999e-08,
"SPI","result",2.6394906,1e-06,0x01
"SPI","disable",2.63949292,4.00000004e-08,
"SPI","enable",2.63951832,3.99999999e-08,
"SPI","result",2.63951912,9.6e-07,0x15
"SPI","disable",2.63952144,3.99999994e-08,
"SPI","enable",2.6395266,3.99999999e-08,
"SPI","result",2.63952744,9.6e-07,0x27
"SPI","disable",2.63952972,3.99999999e-08,
"SPI","enable",2.63953492,4.00000004e-08,
"SPI","result",2.63953572,1e-06,0x27
"SPI","disable",2.63953804,3.99999994e-08,
"SPI","enable",2.63954324,3.99999999e-08,
"SPI","result",2.63954404,1e-06,0x75
"SPI","disable",2.63954636,3.99999999e-08,
"SPI","enable",2.63955156,3.99999994e-08,
"SPI","result",2.63955236,1e-06,0x02
"SPI","disable",2.63955468,4.00000004e-08,
"SPI","enable",2.63955988,3.99999999e-08,
"SPI","result",2.63956068,1e-06,0x02
"SPI","disable",2.639563,3.99999999e-08,
"SPI","enable",2.63958836,4.00000004e-08,
"SPI","result",2.6395892,9.6e-07,0x15
"SPI","disable",2.63959148,4.00000004e-08,
"SPI","enable",2.63959668,3.99999999e-08,
"SPI","result",2.63959748,1e-06,0x27
"SPI","disable",2.6395998,3.99999999e-08,
"SPI","enable",2.639605,4.00000004e-08,
"SPI","result",2.6396058,1e-06,0x27
"SPI","disable",2.63960812,3.99999994e-08,
"SPI","enable",2.63961332,3.99999999e-08,
"SPI","result",2.63961412,1e-06,0x75
"SPI","disable",2.63961644,3.99999999e-08,
"SPI","enable",2.63962164,3.99999994e-08,
"SPI","result",2.63962244,9.6e-07,0x03
"SPI","disable",2.63962476,4.00000004e-08,
"SPI","enable",2.63962996,3.99999999e-08,
"SPI","result",2.63963076,9.6e-07,0x03
"SPI","disable",2.63963308,3.99999999e-08,
"SPI","enable",2.63965844,4.00000004e-08,
"SPI","result",2.63965924,1e-06,0x15
"SPI","disable",2.63966156,4.00000004e-08,
"SPI","enable",2.63966676,3.99999999e-08,
"SPI","result",2.63966756,1e-06,0x27
"SPI","disable",2.63966988,3.99999999e-08,
"SPI","enable",2.63967508,4.00000004e-08,
"SPI","result",2.63967588,1e-06,0x27
"SPI","disable",2.6396782,3.99999994e-08,
"SPI","enable",2.6396834,4.00000004e-08,
"SPI","result",2.6396842,9.6e-07,0x75
"SPI","disable",2.63968652,3.99999999e-08,
"SPI","enable",2.63969168,4.00000004e-08,
"SPI","result",2.63969252,9.6e-07,0x04
"SPI","disable",2.6396948,3.99999999e-08,
"SPI","enable",2.6397,4.00000004e-08,
"SPI","result",2.63970084,9.6e-07,0x04
"SPI","disable",2.63970312,3.99999999e-08,
"SPI","enable",2.63972852,4.00000004e-08,
"SPI","result",2.63972932,1e-06,0x15
"SPI","disable",2.63973164,4.00000004e-08,
"SPI","enable",2.63973684,3.99999999e-08,
"SPI","result",2.63973764,1e-06,0x27
"SPI","disable",2.63973996,4.00000004e-08,
"SPI","enable",2.63974516,4.00000004e-08,
"SPI","result",2.63974596,9.6e-07,0x27
"SPI","disable",2.63974828,3.99999994e-08,
"SPI","enable",2.63975344,3.99999999e-08,
"SPI","result",2.63975428,9.6e-07,0x75
"SPI","disable",2.63975656,4.00000004e-08,
"SPI","enable",2.63976176,4.00000004e-08,
"SPI","result",2.63976256,1e-06,0x05
"SPI","disable",2.63976488,3.99999999e-08,
"SPI","enable",2.63977008,4.00000004e-08,
"SPI","result",2.63977088,1e-06,0x05
"SPI","disable",2.6397732,3.99999999e-08,
"SPI","enable",2.6397986,3.99999999e-08,
"SPI","result",2.6397994,9.6e-07,0x15
"SPI","disable",2.63980172,4.00000004e-08,
"SPI","enable",2.63980692,3.99999999e-08,
"SPI","result",2.63980772,9.6e-07,0x27
"SPI","disable",2.63981,3.99999994e-08,
"SPI","enable",2.6398152,3.99999999e-08,
"SPI","result",2.63981604,9.6e-07,0x27
"SPI","disable",2.63981832,4.00000004e-08,
"SPI","enable",2.63982352,3.99999994e-08,
"SPI","result",2.63982432,1e-06,0x75
"SPI","disable",2.63982664,4.00000004e-08,
"SPI","enable",2.63983184,4.00000004e-08,
"SPI","result",2.63983264,1e-06,0x06
"SPI","disable",2.63983496,3.99999999e-08,
"SPI","enable",2.63984016,4.00000004e-08,
"SPI","result",2.63984096,1e-06,0x06
"SPI","disable",2.63984328,4.00000004e-08,
"SPI","enable",2.63988164,3.99999999e-08,
"SPI","result",2.63988248,9.6e-07,0x15
"SPI","disable",2.63988476,3.99999994e-08,
"SPI","enable",2.63988996,3.99999999e-08,
"SPI","result",2.63989076,1e-06,0x28
"SPI","disable",2.63989308,4.00000004e-08,
"SPI","enable",2.63989828,3.99999994e-08,
"SPI","result",2.63989908,1e-06,0x28
"SPI","disable",2.6399014,4.00000004e-08,
"SPI","enable",2.6399066,3.99999999e-08,
"SPI","result",2.6399074,1e-06,0x75
"SPI","disable",2.63990972,3.99999999e-08,
"SPI","enable",2.63991492,4.00000004e-08,
"SPI","result",2.63991572,1e-06,0x02
"SPI","disable",2.63991804,4.00000004e-08,
"SPI","enable",2.63992324,3.99999999e-08,
"SPI","result",2.63992404,9.6e-07,0x02
"SPI","disable",2.63992636,3.99999999e-08,
"SPI","enable",2.63995516,4.00000004e-08,
"SPI","result",2.63995596,1e-06,0x15
"SPI","disable",2.63995828,3.99999994e-08,
"SPI","enable",2.63996348,3.99999999e-08,
"SPI","result",2.63996428,1e-06,0x28
"SPI","disable",2.6399666,3.99999999e-08,
"SPI","enable",2.6399718,3.99999994e-08,
"SPI","result",2.6399726,1e-06,0x28
"SPI","disable",2.63997492,4.00000004e-08,
"SPI","enable",2.63998012,3.99999999e-08,
"SPI","result",2.63998092,9.6e-07,0x75
"SPI","disable",2.63998324,3.99999999e-08,
"SPI","enable",2.63998844,3.99999999e-08,
"SPI","result",2.63998924,9.6e-07,0x04
"SPI","disable",2.63999152,3.99999999e-08,
"SPI","enable",2.63999672,3.99999999e-08,
"SPI","result",2.63999756,9.6e-07,0x04
"SPI","disable",2.63999984,3.99999994e-08,
"SPI","enable",2.64007576,3.99999999e-08,
"SPI","result",2.64007656,9.6e-07,0x15
"SPI","disable",2.64008468,3.99999994e-08,
"SPI","enable",2.64008988,3.99999999e-08,
"SPI","result",2.64009068,9.6e-07,0x2A
"SPI","disable",2.640093,4.00000004e-08,
"SPI","enable",2.6400982,3.99999994e-08,
"SPI","result",2.640099,9.6e-07,0x2A
"SPI","disable",2.64010132,4.00000004e-08,
"SPI","enable",2.64010648,3.99999999e-08,
"SPI","result",2.64010732,9.60000001e-07,0x75
"SPI","disable",2.6401096,3.99999999e-08,
"SPI","enable",2.6401148,3.99999994e-08,
"SPI","result",2.6401156,1e-06,0x02
"SPI","disable",2.64011792,4.00000004e-08,
"SPI","enable",2.64012312,3.99999999e-08,
"SPI","result",2.64012392,1e-06,0x02
"SPI","disable",2.64012624,3.99999999e-08,
"SPI","enable",2.64015508,4.00000004e-08,
"SPI","result",2.64015588,9.6e-07,0x15
"SPI","disable",2.6401582,3.99999994e-08,
"SPI","enable",2.64016336,3.99999999e-08,
"SPI","result",2.6401642,9.6e-07,0x2A
"SPI","disable",2.64016648,4.00000004e-08,
"SPI","enable",2.64017168,4.00000004e-08,
"SPI","result",2.64017248,1e-06,0x2A
"SPI","disable",2.6401748,3.99999994e-08,
"SPI","enable",2.64018,4.00000004e-08,
"SPI","result",2.6401808,1e-06,0x75
"SPI","disable",2.64018312,3.99999999e-08,
"SPI","enable",2.64018832,3.99999994e-08,
"SPI","result",2.64018912,1e-06,0x04
"SPI","disable",2.64019144,3.99999999e-08,
"SPI","enable",2.64019664,3.99999999e-08,
"SPI","result",2.64019744,1e-06,0x04
"SPI","disable",2.64019976,3.99999999e-08,
"SPI","enable",2.64023812,3.99999999e-08,
"SPI","result",2.64023896,9.6e-07,0x15
"SPI","disable",2.64024124,4.00000004e-08,
"SPI","enable",2.64024644,4.00000004e-08,
"SPI","result",2.64024724,1e-06,0x2B
"SPI","disable",2.64024956,3.99999999e-08,
"SPI","enable",2.64025476,4.00000004e-08,
"SPI","result",2.64025556,1e-06,0x2B
"SPI","disable",2.64025788,3.99999999e-08,
"SPI","enable",2.64026308,3.99999999e-08,
"SPI","result",2.64026388,1e-06,0x75
"SPI","disable",2.6402662,3.99999999e-08,
"SPI","enable",2.6402714,3.99999999e-08,
"SPI","result",2.6402722,9.6e-07,0x00
"SPI","disable",2.64027452,3.99999994e-08,
"SPI","enable",2.64027972,3.99999999e-08,
"SPI","result",2.64028052,9.6e-07,0x00
"SPI","disable",2.64028284,4.00000004e-08,
"SPI","enable",2.6403082,3.99999994e-08,
"SPI","result",2.640309,1e-06,0x15
"SPI","disable",2.64031132,4.00000004e-08,
"SPI","enable",2.64031652,4.00000004e-08,
"SPI","result",2.64031732,1e-06,0x2B
"SPI","disable",2.64031964,3.99999999e-08,
"SPI","enable",2.64032484,4.00000004e-08,
"SPI","result",2.64032564,1e-06,0x2B
"SPI","disable",2.64032796,3.99999999e-08,
"SPI","enable",2.64033316,3.99999999e-08,
"SPI","result",2.64033396,9.6e-07,0x75
"SPI","disable",2.64033628,3.99999999e-08,
"SPI","enable",2.64034148,4.00000004e-08,
"SPI","result",2.64034228,9.6e-07,0x01
"SPI","disable",2.64034456,4.00000004e-08,
"SPI","enable",2.64034976,3.99999999e-08,
"SPI","result",2.6403506,9.6e-07,0x01
"SPI","disable",2.64035288,4.00000004e-08,
"SPI","enable",2.64037828,3.99999994e-08,
"SPI","result",2.64037908,1e-06,0x15
"SPI","disable",2.6403814,4.00000004e-08,
"SPI","enable",2.6403866,4.00000004e-08,
"SPI","result",2.6403874,1e-06,0x2B
"SPI","disable",2.64038972,3.99999999e-08,
"SPI","enable",2.64039492,4.00000004e-08,
"SPI","result",2.64039572,9.6e-07,0x2B
"SPI","disable",2.64039804,4.00000004e-08,
"SPI","enable",2.6404032,3.99999999e-08,
"SPI","result",2.64040404,9.6e-07,0x75
"SPI","disable",2.64040632,3.99999999e-08,
"SPI","enable",2.64041152,4.00000004e-08,
"SPI","result",2.64041232,1e-06,0x02
"SPI","disable",2.64041464,4.00000004e-08,
"SPI","enable",2.64041984,3.99999999e-08,
"SPI","result",2.64042064,1e-06,0x02
"SPI","disable",2.64042296,4.00000004e-08,
"SPI","enable",2.64044836,3.99999994e-08,
"SPI","result",2.64044916,9.6e-07,0x15
"SPI","disable",2.64045148,4.00000004e-08,
"SPI","enable",2.64045668,4.00000004e-08,
"SPI","result",2.64045748,9.60000001e-07,0x2B
"SPI","disable",2.6404598,3.99999999e-08,
"SPI","enable",2.64046496,3.99999994e-08,
"SPI","result",2.6404658,9.6e-07,0x2B
"SPI","disable",2.64046808,3.99999999e-08,
"SPI","enable",2.64047328,3.99999999e-08,
"SPI","result",2.64047408,1e-06,0x75
"SPI","disable",2.6404764,3.99999999e-08,
"SPI","enable",2.6404816,3.99999999e-08,
"SPI","result",2.6404824,1e-06,0x03
"SPI","disable",2.64048472,4.00000004e-08,
"SPI","enable",2.64048992,3.99999999e-08,
"SPI","result",2.64049072,1e-06,0x03
"SPI","disable",2.64049304,4.00000004e-08,
"SPI","enable",2.6405184,4.00000004e-08,
"SPI","result",2.64051924,9.6e-07,0x15
"SPI","disable",2.64052152,3.99999994e-08,
"SPI","enable",2.64052672,4.00000004e-08,
"SPI","result",2.64052752,1e-06,0x2B
"SPI","disable",2.64052984,3.99999999e-08,
"SPI","enable",2.64053504,3.99999994e-08,
"SPI","result",2.64053584,1e-06,0x2B
"SPI","disable",2.64053816,3.99999999e-08,
"SPI","enable",2.64054336,3.99999999e-08,
"SPI","result",2.64054416,1e-06,0x75
"SPI","disable",2.64054648,3.99999999e-08,
"SPI","enable",2.64055168,3.99999999e-08,
"SPI","result",2.64055248,1e-06,0x04
"SPI","disable",2.6405548,4.00000004e-08,
"SPI","enable",2.64056,3.99999999e-08,
"SPI","result",2.6405608,9.6e-07,0x04
"SPI","disable",2.64056312,4.00000004e-08,
"SPI","enable",2.64058848,4.00000004e-08,
"SPI","result",2.64058928,1e-06,0x15
"SPI","disable",2.6405916,3.99999994e-08,
"SPI","enable",2.6405968,4.00000004e-08,
"SPI","result",2.6405976,1e-06,0x2B
"SPI","disable",2.64059992,3.99999999e-08,
"SPI","enable",2.64060512,3.99999994e-08,
"SPI","result",2.64060592,1e-06,0x2B
"SPI","disable",2.64060824,3.99999999e-08,
"SPI","enable",2.64061344,3.99999999e-08,
"SPI","result",2.64061424,9.6e-07,0x75
"SPI","disable",2.64061656,3.99999999e-08,
"SPI","enable",2.64062176,3.99999999e-08,
"SPI","result",2.64062256,9.6e-07,0x05
"SPI","disable",2.64062488,4.00000004e-08,
"SPI","enable",2.64063004,4.00000004e-08,
"SPI","result",2.64063088,9.6e-07,0x05
"SPI","disable",2.64063316,3.99999994e-08,
"SPI","enable",2.64065856,4.00000004e-08,
"SPI","result",2.64065936,1e-06,0x15
"SPI","disable",2.64066168,3.99999999e-08,
"SPI","enable",2.64066688,4.00000004e-08,
"SPI","result",2.64066768,1e-06,0x2B
"SPI","disable",2.64067,3.99999999e-08,
"SPI","enable",2.6406752,3.99999999e-08,
"SPI","result",2.640676,9.6e-07,0x2B
"SPI","disable",2.64067832,3.99999999e-08,
"SPI","enable",2.64068348,4.00000004e-08,
"SPI","result",2.64068432,9.6e-07,0x75
"SPI","disable",2.6406866,4.00000004e-08,
"SPI","enable",2.6406918,3.99999999e-08,
"SPI","result",2.6406926,1e-06,0x06
"SPI","disable",2.64069492,3.99999999e-08,
"SPI","enable",2.64070012,4.00000004e-08,
"SPI","result",2.64070092,1e-06,0x06
"SPI","disable",2.64070324,3.99999994e-08,
"SPI","enable",2.64074164,4.00000004e-08,
"SPI","result",2.64074244,1e-06,0x15
"SPI","disable",2.64074476,3.99999999e-08,
"SPI","enable",2.64074996,3.99999999e-08,
"SPI","result",2.64075076,9.6e-07,0x2C
"SPI","disable",2.64075308,3.99999999e-08,
"SPI","enable",2.64075824,4.00000004e-08,
"SPI","result",2.64075908,9.6e-07,0x2C
"SPI","disable",2.64076136,4.00000004e-08,
"SPI","enable",2.64076656,3.99999999e-08,
"SPI","result",2.64076736,1e-06,0x75
"SPI","disable",2.64076968,4.00000004e-08,
"SPI","enable",2.64077488,4.00000004e-08,
"SPI","result",2.64077568,1e-06,0x02
"SPI","disable",2.640778,3.99999994e-08,
"SPI","enable",2.6407832,4.00000004e-08,
"SPI","result",2.640784,1e-06,0x02
"SPI","disable",2.64078632,3.99999999e-08,
"SPI","enable",2.64081512,3.99999994e-08,
"SPI","result",2.64081596,9.6e-07,0x15
"SPI","disable",2.64081824,3.99999999e-08,
"SPI","enable",2.64082344,3.99999999e-08,
"SPI","result",2.64082424,9.99999999e-07,0x2C
"SPI","disable",2.64082656,3.99999999e-08,
"SPI","enable",2.64083176,3.99999999e-08,
"SPI","result",2.64083256,1e-06,0x2C
"SPI","disable",2.64083488,4.00000004e-08,
"SPI","enable",2.64084008,3.99999999e-08,
"SPI","result",2.64084088,1e-06,0x75
"SPI","disable",2.6408432,4.00000004e-08,
"SPI","enable",2.6408484,4.00000004e-08,
"SPI","result",2.6408492,1e-06,0x04
"SPI","disable",2.64085152,3.99999999e-08,
"SPI","enable",2.64085672,4.00000004e-08,
"SPI","result",2.64085752,9.6e-07,0x04
"SPI","disable",2.64085984,3.99999999e-08,
"SPI","enable",2.6408982,3.99999999e-08,
"SPI","result",2.640899,1e-06,0x15
"SPI","disable",2.64090132,3.99999994e-08,
"SPI","enable",2.64090652,3.99999999e-08,
"SPI","result",2.64090732,1e-06,0x2D
"SPI","disable",2.64090964,4.00000004e-08,
"SPI","enable",2.64091484,3.99999994e-08,
"SPI","result",2.64091564,1e-06,0x2D
"SPI","disable",2.64091796,4.00000004e-08,
"SPI","enable",2.64092316,4.00000004e-08,
"SPI","result",2.64092396,1e-06,0x75
"SPI","disable",2.64092628,3.99999999e-08,
"SPI","enable",2.64093148,4.00000004e-08,
"SPI","result",2.64093228,9.6e-07,0x00
"SPI","disable",2.6409346,4.00000004e-08,
"SPI","enable",2.64093976,3.99999999e-08,
"SPI","result",2.6409406,9.6e-07,0x00
"SPI","disable",2.64094288,3.99999999e-08,
"SPI","enable",2.64096828,3.99999999e-08,
"SPI","result",2.64096908,1e-06,0x15
"SPI","disable",2.6409714,3.99999994e-08,
"SPI","enable",2.6409766,3.99999999e-08,
"SPI","result",2.6409774,1e-06,0x2D
"SPI","disable",2.64097972,4.00000004e-08,
"SPI","enable",2.64098492,3.99999994e-08,
"SPI","result",2.64098572,9.6e-07,0x2D
"SPI","disable",2.64098804,4.00000004e-08,
"SPI","enable",2.64099324,4.00000004e-08,
"SPI","result",2.64099404,9.6e-07,0x75
"SPI","disable",2.64099636,3.99999999e-08,
"SPI","enable",2.64100152,3.99999994e-08,
"SPI","result",2.64100236,9.6e-07,0x01
"SPI","disable",2.64100464,4.00000004e-08,
"SPI","enable",2.64100984,3.99999999e-08,
"SPI","result",2.64101064,1e-06,0x01
"SPI","disable",2.64101296,3.99999999e-08,
"SPI","enable",2.64103836,3.99999999e-08,
"SPI","result",2.64103916,1e-06,0x15
"SPI","disable",2.64104148,3.99999994e-08,
"SPI","enable",2.64104668,3.99999999e-08,
"SPI","result",2.64104748,9.6e-07,0x2D
"SPI","disable",2.6410498,4.00000004e-08,
"SPI","enable",2.64105496,4.00000004e-08,
"SPI","result",2.6410558,9.6e-07,0x2D
"SPI","disable",2.64105808,3.99999994e-08,
"SPI","enable",2.64106328,4.00000004e-08,
"SPI","result",2.64106408,1e-06,0x75
"SPI","disable",2.6410664,3.99999999e-08,
"SPI","enable",2.6410716,3.99999994e-08,
"SPI","result",2.6410724,1e-06,0x02
"SPI","disable",2.64107472,3.99999999e-08,
"SPI","enable",2.64107992,3.99999999e-08,
"SPI","result",2.64108072,9.99999999e-07,0x02
"SPI","disable",2.64108304,3.99999999e-08,
"SPI","enable",2.64111448,3.99999999e-08,
"SPI","result",2.64111528,1e-06,0x15
"SPI","disable",2.6411176,3.99999999e-08,
"SPI","enable",2.6411228,3.99999999e-08,
"SPI","result",2.6411236,1e-06,0x2D
"SPI","disable",2.64112592,4.00000004e-08,
"SPI","enable",2.64113112,3.99999999e-08,
"SPI","result",2.64113192,1e-06,0x2D
"SPI","disable",2.64113424,4.00000004e-08,
"SPI","enable",2.64113944,4.00000004e-08,
"SPI","result",2.64114024,9.6e-07,0x75
"SPI","disable",2.64114256,3.99999994e-08,
"SPI","enable",2.64114772,3.99999994e-08,
"SPI","result",2.64114856,9.6e-07,0x03
"SPI","disable",2.64115084,4.00000004e-08,
"SPI","enable",2.64115604,4.00000004e-08,
"SPI","result",2.64115684,1e-06,0x03
"SPI","disable",2.64115916,3.99999999e-08,
"SPI","enable",2.64118456,3.99999999e-08,
"SPI","result",2.64118536,1e-06,0x15
"SPI","disable",2.64118768,3.99999999e-08,
"SPI","enable",2.64119288,3.99999999e-08,
"SPI","result",2.64119368,9.6e-07,0x2D
"SPI","disable",2.641196,4.00000004e-08,
"SPI","enable",2.6412012,3.99999999e-08,
"SPI","result",2.641202,9.6e-07,0x2D
"SPI","disable",2.64120432,4.00000004e-08,
"SPI","enable",2.64120948,3.99999999e-08,
"SPI","result",2.64121032,9.6e-07,0x75
"SPI","disable",2.6412126,4.00000004e-08,
"SPI","enable",2.6412178,3.99999994e-08,
"SPI","result",2.6412186,1e-06,0x04
"SPI","disable",2.64122092,4.00000004e-08,
"SPI","enable",2.64122612,4.00000004e-08,
"SPI","result",2.64122692,1e-06,0x04
"SPI","disable",2.64122924,3.99999999e-08,
"SPI","enable",2.64125464,3.99999999e-08,
"SPI","result",2.64125544,9.6e-07,0x15
"SPI","disable",2.64125776,3.99999999e-08,
"SPI","enable",2.64126292,3.99999999e-08,
"SPI","result",2.64126376,9.6e-07,0x2D
"SPI","disable",2.64126604,3.99999999e-08,
"SPI","enable",2.64127124,4.00000004e-08,
"SPI","result",2.64127204,1e-06,0x2D
"SPI","disable",2.64127436,3.99999994e-08,
"SPI","enable",2.64127956,3.99999999e-08,
"SPI","result",2.64128036,1e-06,0x75
"SPI","disable",2.64128268,3.99999999e-08,
"SPI","enable",2.64128788,3.99999994e-08,
"SPI","result",2.64128868,1e-06,0x05
"SPI","disable",2.641291,4.00000004e-08,
"SPI","enable",2.6412962,3.99999999e-08,
"SPI","result",2.641297,1e-06,0x05
"SPI","disable",2.64129932,3.99999999e-08,
"SPI","enable",2.64132468,4.00000004e-08,
"SPI","result",2.64132552,9.6e-07,0x15
"SPI","disable",2.6413278,4.00000004e-08,
"SPI","enable",2.641333,3.99999999e-08,
"SPI","result",2.6413338,1e-06,0x2D
"SPI","disable",2.64133612,3.99999999e-08,
"SPI","enable",2.64134132,4.00000004e-08,
"SPI","result",2.64134212,1e-06,0x2D
"SPI","disable",2.64134444,3.99999994e-08,
"SPI","enable",2.64134964,3.99999999e-08,
"SPI","result",2.64135044,1e-06,0x75
"SPI","disable",2.64135276,3.99999999e-08,
"SPI","enable",2.64135796,3.99999994e-08,
"SPI","result",2.64135876,1e-06,0x06
"SPI","disable",2.64136108,4.00000004e-08,
"SPI","enable",2.64136628,3.99999999e-08,
"SPI","result",2.64136708,9.6e-07,0x06
"SPI","disable",2.6413694,3.99999999e-08,
"SPI","enable",2.64140776,3.99999999e-08,
"SPI","result",2.64140856,1e-06,0x15
"SPI","disable",2.64141088,4.00000004e-08,
"SPI","enable",2.64141608,4.00000004e-08,
"SPI","result",2.64141688,1e-06,0x2E
"SPI","disable",2.6414192,3.99999994e-08,
"SPI","enable",2.6414244,4.00000004e-08,
"SPI","result",2.6414252,1e-06,0x2E
"SPI","disable",2.64142752,3.99999999e-08,
"SPI","enable",2.64143272,3.99999994e-08,
"SPI","result",2.64143352,9.6e-07,0x75
"SPI","disable",2.64143584,3.99999999e-08,
"SPI","enable",2.64144104,3.99999999e-08,
"SPI","result",2.64144184,9.6e-07,0x02
"SPI","disable",2.64144416,3.99999999e-08,
"SPI","enable",2.64144932,3.99999999e-08,
"SPI","result",2.64145016,9.6e-07,0x02
"SPI","disable",2.64145244,3.99999999e-08,
"SPI","enable",2.64148128,3.99999999e-08,
"SPI","result",2.64148208,1e-06,0x15
"SPI","disable",2.6414844,4.00000004e-08,
"SPI","enable",2.6414896,4.00000004e-08,
"SPI","result",2.6414904,9.6e-07,0x2E
"SPI","disable",2.64149272,3.99999999e-08,
"SPI","enable",2.64149792,4.00000004e-08,
"SPI","result",2.64149872,9.6e-07,0x2E
"SPI","disable",2.64150104,3.99999999e-08,
"SPI","enable",2.6415062,4.00000004e-08,
"SPI","result",2.64150704,9.6e-07,0x75
"SPI","disable",2.64150932,3.99999999e-08,
"SPI","enable",2.64151452,4.00000004e-08,
"SPI","result",2.64151532,1e-06,0x04
"SPI","disable",2.64151764,4.00000004e-08,
"SPI","enable",2.64152284,3.99999999e-08,
"SPI","result",2.64152364,1e-06,0x04
"SPI","disable",2.64152596,3.99999999e-08,
"SPI","enable",2.64160184,4.00000004e-08,
"SPI","result",2.64160264,1e-06,0x15
"SPI","disable",2.64160496,3.99999999e-08,
"SPI","enable",2.64161016,4.00000004e-08,
"SPI","result",2.64161096,1e-06,0x30
"SPI","disable",2.64161328,3.99999999e-08,
"SPI","enable",2.64161848,3.99999999e-08,
"SPI","result",2.64161928,1e-06,0x30
"SPI","disable",2.6416216,3.99999999e-08,
"SPI","enable",2.6416268,3.99999999e-08,
"SPI","result",2.6416276,1e-06,0x75
"SPI","disable",2.64162992,3.99999994e-08,
"SPI","enable",2.64163512,3.99999999e-08,
"SPI","result",2.64163592,9.6e-07,0x02
"SPI","disable",2.64163824,4.00000004e-08,
"SPI","enable",2.6416434,4.00000004e-08,
"SPI","result",2.64164424,9.6e-07,0x02
"SPI","disable",2.64164652,3.99999994e-08,
"SPI","enable",2.64167536,4.00000004e-08,
"SPI","result",2.64167616,1e-06,0x15
"SPI","disable",2.64167848,3.99999999e-08,
"SPI","enable",2.64168368,3.99999999e-08,
"SPI","result",2.64168448,1e-06,0x30
"SPI","disable",2.6416868,4.00000004e-08,
"SPI","enable",2.641692,3.99999999e-08,
"SPI","result",2.6416928,9.6e-07,0x30
"SPI","disable",2.64169512,3.99999999e-08,
"SPI","enable",2.64170032,4.00000004e-08,
"SPI","result",2.64170112,9.6e-07,0x75
"SPI","disable",2.6417034,4.00000004e-08,
"SPI","enable",2.6417086,3.99999999e-08,
"SPI","result",2.64170944,9.6e-07,0x04
"SPI","disable",2.64171172,4.00000004e-08,
"SPI","enable",2.64171692,4.00000004e-08,
"SPI","result",2.64171772,1e-06,0x04
"SPI","disable",2.64172004,3.99999994e-08,
"SPI","enable",2.64175844,4.00000004e-08,
"SPI","result",2.64175924,1e-06,0x15
"SPI","disable",2.64176156,4.00000004e-08,
"SPI","enable",2.64176676,3.99999999e-08,
"SPI","result",2.64176756,9.6e-07,0x31
"SPI","disable",2.64176988,4.00000004e-08,
"SPI","enable",2.64177504,3.99999999e-08,
"SPI","result",2.64177588,9.6e-07,0x31
"SPI","disable",2.64177816,4.00000004e-08,
"SPI","enable",2.64178336,3.99999999e-08,
"SPI","result",2.64178416,1e-06,0x75
"SPI","disable",2.64178648,4.00000004e-08,
"SPI","enable",2.64179168,4.00000004e-08,
"SPI","result",2.64179248,1e-06,0x00
"SPI","disable",2.6417948,3.99999999e-08,
"SPI","enable",2.6418,4.00000004e-08,
"SPI","result",2.6418008,1e-06,0x00
"SPI","disable",2.64180312,3.99999999e-08,
"SPI","enable",2.64182852,4.00000004e-08,
"SPI","result",2.64182932,9.6e-07,0x15
"SPI","disable",2.64183164,4.00000004e-08,
"SPI","enable",2.6418368,3.99999999e-08,
"SPI","result",2.64183764,9.6e-07,0x31
"SPI","disable",2.64183992,3.99999999e-08,
"SPI","enable",2.64184512,3.99999999e-08,
"SPI","result",2.64184592,1e-06,0x31
"SPI","disable",2.64184824,4.00000004e-08,
"SPI","enable",2.64185344,3.99999994e-08,
"SPI","result",2.64185424,1e-06,0x75
"SPI","disable",2.64185656,4.00000004e-08,
"SPI","enable",2.64186176,4.00000004e-08,
"SPI","result",2.64186256,1e-06,0x01
"SPI","disable",2.64186488,3.99999999e-08,
"SPI","enable",2.64187008,4.00000004e-08,
"SPI","result",2.64187088,1e-06,0x01
"SPI","disable",2.6418732,3.99999999e-08,
"SPI","enable",2.64189856,3.99999999e-08,
"SPI","result",2.6418994,9.6e-07,0x15
"SPI","disable",2.64190168,3.99999999e-08,
"SPI","enable",2.64190688,3.99999999e-08,
"SPI","result",2.64190768,1e-06,0x31
"SPI","disable",2.64191,3.99999994e-08,
"SPI","enable",2.6419152,3.99999999e-08,
"SPI","result",2.641916,1e-06,0x31
"SPI","disable",2.64191832,4.00000004e-08,
"SPI","enable",2.64192352,3.99999994e-08,
"SPI","result",2.64192432,1e-06,0x75
"SPI","disable",2.64192664,4.00000004e-08,
"SPI","enable",2.64193184,4.00000004e-08,
"SPI","result",2.64193264,9.6e-07,0x02
"SPI","disable",2.64193496,3.99999999e-08,
"SPI","enable",2.64194016,4.00000004e-08,
"SPI","result",2.64194096,9.6e-07,0x02
"SPI","disable",2.64194324,4.00000004e-08,
"SPI","enable",2.64196864,4.00000004e-08,
"SPI","result",2.64196944,1e-06,0x15
"SPI","disable",2.64197176,3.99999999e-08,
"SPI","enable",2.64197696,3.99999999e-08,
"SPI","result",2.64197776,1e-06,0x31
"SPI","disable",2.64198008,3.99999994e-08,
"SPI","enable",2.64198528,3.99999999e-08,
"SPI","result",2.64198608,1e-06,0x31
"SPI","disable",2.6419884,4.00000004e-08,
"SPI","enable",2.6419936,3.99999999e-08,
"SPI","result",2.6419944,9.6e-07,0x75
"SPI","disable",2.64199672,4.00000004e-08,
"SPI","enable",2.64200188,3.99999999e-08,
"SPI","result",2.64200272,9.6e-07,0x03
"SPI","disable",2.642005,3.99999999e-08,
"SPI","enable",2.6420102,3.99999999e-08,
"SPI","result",2.642011,1e-06,0x03
"SPI","disable",2.64201332,3.99999999e-08,
"SPI","enable",2.64203872,4.00000004e-08,
"SPI","result",2.64203952,1e-06,0x15
"SPI","disable",2.64204184,3.99999999e-08,
"SPI","enable",2.64204704,4.00000004e-08,
"SPI","result",2.64204784,9.6e-07,0x31
"SPI","disable",2.64205016,3.99999994e-08,
"SPI","enable",2.64205536,3.99999994e-08,
"SPI","result",2.64205616,9.6e-07,0x31
"SPI","disable",2.64205844,4.00000004e-08,
"SPI","enable",2.64206364,4.00000004e-08,
"SPI","result",2.64206448,9.6e-07,0x75
"SPI","disable",2.64206676,3.99999994e-08,
"SPI","enable",2.64207196,3.99999999e-08,
"SPI","result",2.64207276,1e-06,0x04
"SPI","disable",2.64207508,3.99999999e-08,
"SPI","enable",2.64208028,3.99999999e-08,
"SPI","result",2.64208108,1e-06,0x04
"SPI","disable",2.6420834,3.99999999e-08,
"SPI","enable",2.6421088,4.00000004e-08,
"SPI","result",2.6421096,9.6e-07,0x15
"SPI","disable",2.64211192,3.99999994e-08,
"SPI","enable",2.64211708,3.99999999e-08,
"SPI","result",2.64211792,9.6e-07,0x31
"SPI","disable",2.6421202,4.00000004e-08,
"SPI","enable",2.6421254,4.00000004e-08,
"SPI","result",2.64213228,1e-06,0x31
"SPI","disable",2.6421346,4.00000004e-08,
"SPI","enable",2.6421398,3.99999999e-08,
"SPI","result",2.6421406,9.6e-07,0x75
"SPI","disable",2.64214292,4.00000004e-08,
"SPI","enable",2.64214812,4.00000004e-08,
"SPI","result",2.64214892,9.6e-07,0x05
"SPI","disable",2.64215124,3.99999999e-08,
"SPI","enable",2.6421564,3.99999994e-08,
"SPI","result",2.64215724,9.6e-07,0x05
"SPI","disable",2.64215952,4.00000004e-08,
"SPI","enable",2.64218492,3.99999994e-08,
"SPI","result",2.64218572,1e-06,0x15
"SPI","disable",2.64218804,3.99999999e-08,
"SPI","enable",2.64219324,3.99999999e-08,
"SPI","result",2.64219404,9.99999999e-07,0x31
"SPI","disable",2.64219636,3.99999999e-08,
"SPI","enable",2.64220156,3.99999999e-08,
"SPI","result",2.64220236,9.6e-07,0x31
"SPI","disable",2.64220468,4.00000004e-08,
"SPI","enable",2.64220984,3.99999999e-08,
"SPI","result",2.64221068,9.6e-07,0x75
"SPI","disable",2.64221296,3.99999994e-08,
"SPI","enable",2.64221816,3.99999999e-08,
"SPI","result",2.64221896,1e-06,0x06
"SPI","disable",2.64222128,4.00000004e-08,
"SPI","enable",2.64222648,3.99999994e-08,
"SPI","result",2.64222728,1e-06,0x06
"SPI","disable",2.6422296,4.00000004e-08,
"SPI","enable",2.642268,3.99999999e-08,
"SPI","result",2.6422688,9.6e-07,0x15
"SPI","disable",2.64227112,3.99999994e-08,
"SPI","enable",2.64227632,3.99999999e-08,
"SPI","result",2.64227712,9.6e-07,0x32
"SPI","disable",2.64227944,4.00000004e-08,
"SPI","enable",2.6422846,4.00000004e-08,
"SPI","result",2.64228544,9.6e-07,0x32
"SPI","disable",2.64228772,3.99999994e-08,
"SPI","enable",2.64229292,3.99999999e-08,
"SPI","result",2.64229372,1e-06,0x75
"SPI","disable",2.64229604,3.99999999e-08,
"SPI","enable",2.64230124,3.99999994e-08,
"SPI","result",2.64230204,1e-06,0x02
"SPI","disable",2.64230436,4.00000004e-08,
"SPI","enable",2.64230956,3.99999999e-08,
"SPI","result",2.64231036,9.99999999e-07,0x02
"SPI","disable",2.64231268,3.99999999e-08,
"SPI","enable",2.64234148,4.00000004e-08,
"SPI","result",2.64234232,9.6e-07,0x15
"SPI","disable",2.6423446,4.00000004e-08,
"SPI","enable",2.6423498,3.99999999e-08,
"SPI","result",2.6423506,1e-06,0x32
"SPI","disable",2.64235292,4.00000004e-08,
"SPI","enable",2.64235812,4.00000004e-08,
"SPI","result",2.64235892,1e-06,0x32
"SPI","disable",2.64236124,3.99999994e-08,
"SPI","enable",2.64236644,4.00000004e-08,
"SPI","result",2.64236724,1e-06,0x75
"SPI","disable",2.64236956,3.99999999e-08,
"SPI","enable",2.64237476,3.99999994e-08,
"SPI","result",2.64237556,1e-06,0x04
"SPI","disable",2.64237788,3.99999999e-08,
"SPI","enable",2.64238308,3.99999999e-08,
"SPI","result",2.64238388,9.6e-07,0x04
"SPI","disable",2.6423862,3.99999999e-08,
"SPI","enable",2.64242456,3.99999999e-08,
"SPI","result",2.64242536,1e-06,0x15
"SPI","disable",2.64242768,4.00000004e-08,
"SPI","enable",2.64243288,4.00000004e-08,
"SPI","result",2.64243368,1e-06,0x33
"SPI","disable",2.642436,3.99999999e-08,
"SPI","enable",2.6424412,4.00000004e-08,
"SPI","result",2.642442,1e-06,0x33
"SPI","disable",2.64244432,3.99999999e-08,
"SPI","enable",2.64244952,3.99999999e-08,
"SPI","result",2.64245032,9.6e-07,0x75
"SPI","disable",2.64245264,3.99999999e-08,
"SPI","enable",2.64245784,3.99999999e-08,
"SPI","result",2.64245864,9.6e-07,0x00
"SPI","disable",2.64246096,3.99999994e-08,
"SPI","enable",2.64246612,3.99999999e-08,
"SPI","result",2.64246696,9.6e-07,0x00
"SPI","disable",2.64246924,3.99999999e-08,
"SPI","enable",2.64249464,3.99999999e-08,
"SPI","result",2.64249544,1e-06,0x15
"SPI","disable",2.64249776,4.00000004e-08,
"SPI","enable",2.64250296,4.00000004e-08,
"SPI","result",2.64250376,1e-06,0x33
"SPI","disable",2.64250608,3.99999999e-08,
"SPI","enable",2.64251128,4.00000004e-08,
"SPI","result",2.64251208,9.6e-07,0x33
"SPI","disable",2.6425144,3.99999999e-08,
"SPI","enable",2.6425196,3.99999999e-08,
"SPI","result",2.6425204,9.6e-07,0x75
"SPI","disable",2.64252268,3.99999999e-08,
"SPI","enable",2.64252788,4.00000004e-08,
"SPI","result",2.64252872,9.6e-07,0x01
"SPI","disable",2.642531,4.00000004e-08,
"SPI","enable",2.6425362,3.99999999e-08,
"SPI","result",2.642537,1e-06,0x01
"SPI","disable",2.64253932,3.99999999e-08,
"SPI","enable",2.64256472,3.99999994e-08,
"SPI","result",2.64256552,1e-06,0x15
"SPI","disable",2.64256784,4.00000004e-08,
"SPI","enable",2.64257304,4.00000004e-08,
"SPI","result",2.64257384,9.6e-07,0x33
"SPI","disable",2.64257616,3.99999999e-08,
"SPI","enable",2.64258132,3.99999994e-08,
"SPI","result",2.64258216,9.6e-07,0x33
"SPI","disable",2.64258444,4.00000004e-08,
"SPI","enable",2.64258964,3.99999999e-08,
"SPI","result",2.64259044,9.99999999e-07,0x75
"SPI","disable",2.64259276,3.99999999e-08,
"SPI","enable",2.64259796,4.00000004e-08,
"SPI","result",2.64259876,1e-06,0x02
"SPI","disable",2.64260108,4.00000004e-08,
"SPI","enable",2.64260628,3.99999999e-08,
"SPI","result",2.64260708,1e-06,0x02
"SPI","disable",2.6426094,4.00000004e-08,
"SPI","enable",2.6426348,3.99999994e-08,
"SPI","result",2.6426356,9.6e-07,0x15
"SPI","disable",2.64263792,4.00000004e-08,
"SPI","enable",2.64264308,3.99999999e-08,
"SPI","result",2.64264392,9.6e-07,0x33
"SPI","disable",2.6426462,3.99999999e-08,
"SPI","enable",2.6426514,3.99999994e-08,
"SPI","result",2.6426522,1e-06,0x33
"SPI","disable",2.64265452,4.00000004e-08,
"SPI","enable",2.64265972,3.99999999e-08,
"SPI","result",2.64266052,9.99999999e-07,0x75
"SPI","disable",2.64266284,3.99999999e-08,
"SPI","enable",2.64266804,3.99999999e-08,
"SPI","result",2.64266884,1e-06,0x03
"SPI","disable",2.64267116,4.00000004e-08,
"SPI","enable",2.64267636,3.99999999e-08,
"SPI","result",2.64267716,9.6e-07,0x03
"SPI","disable",2.64267948,4.00000004e-08,
"SPI","enable",2.64270484,4.00000004e-08,
"SPI","result",2.64270564,1e-06,0x15
"SPI","disable",2.64270796,3.99999994e-08,
"SPI","enable",2.64271316,4.00000004e-08,
"SPI","result",2.64271396,1e-06,0x33
"SPI","disable",2.64271628,3.99999999e-08,
"SPI","enable",2.64272148,3.99999994e-08,
"SPI","result",2.64272228,1e-06,0x33
"SPI","disable",2.6427246,3.99999999e-08,
"SPI","enable",2.6427298,3.99999999e-08,
"SPI","result",2.6427306,1e-06,0x75
"SPI","disable",2.64273292,3.99999999e-08,
"SPI","enable",2.64273812,3.99999999e-08,
"SPI","result",2.64273892,9.6e-07,0x04
"SPI","disable",2.64274124,4.00000004e-08,
"SPI","enable",2.6427464,3.99999999e-08,
"SPI","result",2.64274724,9.6e-07,0x04
"SPI","disable",2.64274952,3.99999994e-08,
"SPI","enable",2.64277492,4.00000004e-08,
"SPI","result",2.64277572,1e-06,0x15
"SPI","disable",2.64277804,3.99999994e-08,
"SPI","enable",2.64278324,4.00000004e-08,
"SPI","result",2.64278404,1e-06,0x33
"SPI","disable",2.64278636,3.99999999e-08,
"SPI","enable",2.64279156,3.99999999e-08,
"SPI","result",2.64279236,9.6e-07,0x33
"SPI","disable",2.64279468,3.99999999e-08,
"SPI","enable",2.64279988,3.99999999e-08,
"SPI","result",2.64280068,9.6e-07,0x75
"SPI","disable",2.642803,3.99999999e-08,
"SPI","enable",2.64280816,3.99999999e-08,
"SPI","result",2.642809,9.6e-07,0x05
"SPI","disable",2.64281128,3.99999999e-08,
"SPI","enable",2.64281648,3.99999999e-08,
"SPI","result",2.64281728,1e-06,0x05
"SPI","disable",2.6428196,3.99999994e-08,
"SPI","enable",2.642845,4.00000004e-08,
"SPI","result",2.6428458,1e-06,0x15
"SPI","disable",2.64284812,3.99999994e-08,
"SPI","enable",2.64285332,3.99999999e-08,
"SPI","result",2.64285412,9.6e-07,0x33
"SPI","disable",2.64285644,3.99999999e-08,
"SPI","enable",2.6428616,4.00000004e-08,
"SPI","result",2.64286244,9.6e-07,0x33
"SPI","disable",2.64286472,3.99999999e-08,
"SPI","enable",2.64286992,3.99999999e-08,
"SPI","result",2.64287072,1e-06,0x75
"SPI","disable",2.64287304,4.00000004e-08,
"SPI","enable",2.64287824,4.00000004e-08,
"SPI","result",2.64287904,1e-06,0x06
"SPI","disable",2.64288136,3.99999999e-08,
"SPI","enable",2.64288656,4.00000004e-08,
"SPI","result",2.64288736,1e-06,0x06
"SPI","disable",2.64288968,3.99999994e-08,
"SPI","enable",2.64292808,4.00000004e-08,
"SPI","result",2.64292888,9.6e-07,0x15
"SPI","disable",2.6429312,3.99999999e-08,
"SPI","enable",2.64293636,3.99999999e-08,
"SPI","result",2.6429372,9.6e-07,0x34
"SPI","disable",2.64293948,3.99999999e-08,
"SPI","enable",2.64294468,4.00000004e-08,
"SPI","result",2.64294548,1e-06,0x34
"SPI","disable",2.6429478,4.00000004e-08,
"SPI","enable",2.642953,3.99999999e-08,
"SPI","result",2.6429538,1e-06,0x75
"SPI","disable",2.64295612,4.00000004e-08,
"SPI","enable",2.64296132,4.00000004e-08,
"SPI","result",2.64296212,1e-06,0x02
"SPI","disable",2.64296444,3.99999994e-08,
"SPI","enable",2.64296964,4.00000004e-08,
"SPI","result",2.64297044,1e-06,0x02
"SPI","disable",2.64297276,3.99999999e-08,
"SPI","enable",2.64300156,3.99999999e-08,
"SPI","result",2.64300236,1e-06,0x15
"SPI","disable",2.64300468,3.99999999e-08,
"SPI","enable",2.64300988,3.99999999e-08,
"SPI","result",2.64301068,1e-06,0x34
"SPI","disable",2.643013,3.99999999e-08,
"SPI","enable",2.6430182,3.99999994e-08,
"SPI","result",2.643019,1e-06,0x34
"SPI","disable",2.64302132,4.00000004e-08,
"SPI","enable",2.64302652,4.00000004e-08,
"SPI","result",2.64302732,1e-06,0x75
"SPI","disable",2.64302964,4.00000004e-08,
"SPI","enable",2.64303484,4.00000004e-08,
"SPI","result",2.64303564,9.6e-07,0x04
"SPI","disable",2.64303796,3.99999999e-08,
"SPI","enable",2.64304312,3.99999999e-08,
"SPI","result",2.64304396,9.6e-07,0x04
"SPI","disable",2.64304624,4.00000004e-08,
"SPI","enable",2.64312216,4.00000004e-08,
"SPI","result",2.64312296,9.6e-07,0x15
"SPI","disable",2.64312528,3.99999994e-08,
"SPI","enable",2.64313048,4.00000004e-08,
"SPI","result",2.64313128,9.6e-07,0x36
"SPI","disable",2.6431336,3.99999999e-08,
"SPI","enable",2.64313876,4.00000004e-08,
"SPI","result",2.6431396,9.6e-07,0x36
"SPI","disable",2.64314188,3.99999999e-08,
"SPI","enable",2.64314708,4.00000004e-08,
"SPI","result",2.64314788,1e-06,0x75
"SPI","disable",2.64315628,4.00000004e-08,
"SPI","enable",2.64316148,4.00000004e-08,
"SPI","result",2.64316228,9.6e-07,0x02
"SPI","disable",2.6431646,3.99999999e-08,
"SPI","enable",2.64316976,3.99999999e-08,
"SPI","result",2.6431706,9.6e-07,0x02
"SPI","disable",2.64317288,4.00000004e-08,
"SPI","enable",2.64320172,4.00000004e-08,
"SPI","result",2.64320252,1e-06,0x15
"SPI","disable",2.64320484,3.99999994e-08,
"SPI","enable",2.64321004,3.99999999e-08,
"SPI","result",2.64321084,1e-06,0x36
"SPI","disable",2.64321316,3.99999999e-08,
"SPI","enable",2.64321836,3.99999994e-08,
"SPI","result",2.64321916,9.6e-07,0x36
"SPI","disable",2.64322148,4.00000004e-08,
"SPI","enable",2.64322668,3.99999999e-08,
"SPI","result",2.64322748,9.6e-07,0x75
"SPI","disable",2.64322976,3.99999999e-08,
"SPI","enable",2.64323496,3.99999994e-08,
"SPI","result",2.6432358,9.6e-07,0x04
"SPI","disable",2.64323808,3.99999999e-08,
"SPI","enable",2.64324328,3.99999999e-08,
"SPI","result",2.64324408,1e-06,0x04
"SPI","disable",2.6432464,3.99999999e-08,
"SPI","enable",2.6432848,4.00000004e-08,
"SPI","result",2.6432856,1e-06,0x15
"SPI","disable",2.64328792,3.99999994e-08,
"SPI","enable",2.64329312,3.99999994e-08,
"SPI","result",2.64329392,9.6e-07,0x37
"SPI","disable",2.64329624,3.99999999e-08,
"SPI","enable",2.6433014,4.00000004e-08,
"SPI","result",2.64330224,9.6e-07,0x37
"SPI","disable",2.64330452,3.99999994e-08,
"SPI","enable",2.64330972,3.99999999e-08,
"SPI","result",2.64331052,1e-06,0x75
"SPI","disable",2.64331284,3.99999999e-08,
"SPI","enable",2.64331804,3.99999999e-08,
"SPI","result",2.64331884,1e-06,0x00
"SPI","disable",2.64332116,3.99999999e-08,
"SPI","enable",2.64332636,3.99999999e-08,
"SPI","result",2.64332716,1e-06,0x00
"SPI","disable",2.64332948,3.99999999e-08,
"SPI","enable",2.64335488,4.00000004e-08,
"SPI","result",2.64335568,9.6e-07,0x15
"SPI","disable",2.643358,3.99999999e-08,
"SPI","enable",2.64336316,4.00000004e-08,
"SPI","result",2.643364,9.6e-07,0x37
"SPI","disable",2.64336628,4.00000004e-08,
"SPI","enable",2.64337148,4.00000004e-08,
"SPI","result",2.64337228,1e-06,0x37
"SPI","disable",2.6433746,3.99999999e-08,
"SPI","enable",2.6433798,3.99999999e-08,
"SPI","result",2.6433806,1e-06,0x75
"SPI","disable",2.64338292,3.99999999e-08,
"SPI","enable",2.64338812,4.00000004e-08,
"SPI","result",2.64338892,1e-06,0x01
"SPI","disable",2.64339124,3.99999999e-08,
"SPI","enable",2.64339644,3.99999999e-08,
"SPI","result",2.64339724,9.6e-07,0x01
"SPI","disable",2.64339956,3.99999994e-08,
"SPI","enable",2.64342492,3.99999994e-08,
"SPI","result",2.64342576,9.6e-07,0x15
"SPI","disable",2.64342804,4.00000004e-08,
"SPI","enable",2.64343324,4.00000004e-08,
"SPI","result",2.64343404,1e-06,0x37
"SPI","disable",2.64343636,3.99999999e-08,
"SPI","enable",2.64344156,4.00000004e-08,
"SPI","result",2.64344236,1e-06,0x37
"SPI","disable",2.64344468,4.00000004e-08,
"SPI","enable",2.64344988,3.99999999e-08,
"SPI","result",2.64345068,1e-06,0x75
"SPI","disable",2.643453,3.99999999e-08,
"SPI","enable",2.6434582,4.00000004e-08,
"SPI","result",2.643459,9.6e-07,0x02
"SPI","disable",2.64346132,3.99999994e-08,
"SPI","enable",2.64346648,3.99999999e-08,
"SPI","result",2.64346732,9.6e-07,0x02
"SPI","disable",2.6434696,4.00000004e-08,
"SPI","enable",2.643495,3.99999994e-08,
"SPI","result",2.6434958,1e-06,0x15
"SPI","disable",2.64349812,4.00000004e-08,
"SPI","enable",2.64350332,3.99999999e-08,
"SPI","result",2.64350412,1e-06,0x37
"SPI","disable",2.64350644,3.99999999e-08,
"SPI","enable",2.64351164,4.00000004e-08,
"SPI","result",2.64351244,1e-06,0x37
"SPI","disable",2.64351476,4.00000004e-08,
"SPI","enable",2.64351996,3.99999999e-08,
"SPI","result",2.64352076,9.6e-07,0x75
"SPI","disable",2.64352308,3.99999999e-08,
"SPI","enable",2.64352824,3.99999999e-08,
"SPI","result",2.64352908,9.6e-07,0x03
"SPI","disable",2.64353136,4.00000004e-08,
"SPI","enable",2.64353656,3.99999999e-08,
"SPI","result",2.64353736,1e-06,0x03
"SPI","disable",2.64353968,4.00000004e-08,
"SPI","enable",2.64356508,3.99999994e-08,
"SPI","result",2.64356588,1e-06,0x15
"SPI","disable",2.6435682,4.00000004e-08,
"SPI","enable",2.6435734,3.99999999e-08,
"SPI","result",2.6435742,9.6e-07,0x37
"SPI","disable",2.64357652,3.99999999e-08,
"SPI","enable",2.64358172,4.00000004e-08,
"SPI","result",2.64358252,9.6e-07,0x37
"SPI","disable",2.6435848,3.99999999e-08,
"SPI","enable",2.64359,3.99999999e-08,
"SPI","result",2.64359084,9.6e-07,0x75
"SPI","disable",2.64359312,3.99999999e-08,
"SPI","enable",2.64359832,3.99999999e-08,
"SPI","result",2.64359912,1e-06,0x04
"SPI","disable",2.64360144,4.00000004e-08,
"SPI","enable",2.64360664,3.99999999e-08,
"SPI","result",2.64360744,1e-06,0x04
"SPI","disable",2.64360976,4.00000004e-08,
"SPI","enable",2.64363516,3.99999994e-08,
"SPI","result",2.64363596,9.6e-07,0x15
"SPI","disable",2.64363828,4.00000004e-08,
"SPI","enable",2.64364344,4.00000004e-08,
"SPI","result",2.64364428,9.6e-07,0x37
"SPI","disable",2.64364656,3.99999999e-08,
"SPI","enable",2.64365176,3.99999999e-08,
"SPI","result",2.64365256,1e-06,0x37
"SPI","disable",2.64365488,3.99999999e-08,
"SPI","enable",2.64366008,3.99999999e-08,
"SPI","result",2.64366088,1e-06,0x75
"SPI","disable",2.6436632,3.99999994e-08,
"SPI","enable",2.6436684,3.99999999e-08,
"SPI","result",2.6436692,1e-06,0x05
"SPI","disable",2.64367152,4.00000004e-08,
"SPI","enable",2.64367672,3.99999994e-08,
"SPI","result",2.64367752,1e-06,0x05
"SPI","disable",2.64367984,4.00000004e-08,
"SPI","enable",2.6437052,4.00000004e-08,
"SPI","result",2.64370604,9.6e-07,0x15
"SPI","disable",2.64370832,3.99999999e-08,
"SPI","enable",2.64371352,4.00000004e-08,
"SPI","result",2.64371432,1e-06,0x37
"SPI","disable",2.64371664,3.99999999e-08,
"SPI","enable",2.64372184,3.99999999e-08,
"SPI","result",2.64372264,1e-06,0x37
"SPI","disable",2.64372496,3.99999999e-08,
"SPI","enable",2.64373016,3.99999999e-08,
"SPI","result",2.64373096,1e-06,0x75
"SPI","disable",2.64373328,3.99999994e-08,
"SPI","enable",2.64373848,3.99999999e-08,
"SPI","result",2.64373928,9.6e-07,0x06
"SPI","disable",2.6437416,4.00000004e-08,
"SPI","enable",2.6437468,3.99999994e-08,
"SPI","result",2.6437476,9.6e-07,0x06
"SPI","disable",2.64374992,4.00000004e-08,
"SPI","enable",2.64378828,4.00000004e-08,
"SPI","result",2.64378908,1e-06,0x15
"SPI","disable",2.6437914,4.00000004e-08,
"SPI","enable",2.6437966,3.99999999e-08,
"SPI","result",2.6437974,1e-06,0x38
"SPI","disable",2.64379972,3.99999999e-08,
"SPI","enable",2.64380492,4.00000004e-08,
"SPI","result",2.64380572,1e-06,0x38
"SPI","disable",2.64380804,3.99999994e-08,
"SPI","enable",2.64381324,3.99999999e-08,
"SPI","result",2.64381404,9.6e-07,0x75
"SPI","disable",2.64381636,3.99999999e-08,
"SPI","enable",2.64382152,4.00000004e-08,
"SPI","result",2.64382236,9.6e-07,0x02
"SPI","disable",2.64382464,3.99999994e-08,
"SPI","enable",2.64382984,4.00000004e-08,
"SPI","result",2.64383064,1e-06,0x02
"SPI","disable",2.64383296,3.99999999e-08,
"SPI","enable",2.6438618,4.00000004e-08,
"SPI","result",2.6438626,1e-06,0x15
"SPI","disable",2.64386492,4.00000004e-08,
"SPI","enable",2.64387012,3.99999999e-08,
"SPI","result",2.64387092,9.6e-07,0x38
"SPI","disable",2.64387324,4.00000004e-08,
"SPI","enable",2.64387844,4.00000004e-08,
"SPI","result",2.64387924,9.6e-07,0x38
"SPI","disable",2.64388156,3.99999994e-08,
"SPI","enable",2.64388672,3.99999999e-08,
"SPI","result",2.64388756,9.6e-07,0x75
"SPI","disable",2.64388984,4.00000004e-08,
"SPI","enable",2.64389504,4.00000004e-08,
"SPI","result",2.64389584,1e-06,0x04
"SPI","disable",2.64389816,3.99999999e-08,
"SPI","enable",2.64390336,4.00000004e-08,
"SPI","result",2.64390416,1e-06,0x04
"SPI","disable",2.64390648,3.99999999e-08,
"SPI","enable",2.64394488,3.99999999e-08,
"SPI","result",2.64394568,9.6e-07,0x15
"SPI","disable",2.643948,4.00000004e-08,
"SPI","enable",2.64395316,3.99999999e-08,
"SPI","result",2.643954,9.6e-07,0x39
"SPI","disable",2.64395628,4.00000004e-08,
"SPI","enable",2.64396148,3.99999994e-08,
"SPI","result",2.64396228,1e-06,0x39
"SPI","disable",2.6439646,4.00000004e-08,
"SPI","enable",2.6439698,4.00000004e-08,
"SPI","result",2.6439706,1e-06,0x75
"SPI","disable",2.64397292,3.99999999e-08,
"SPI","enable",2.64397812,4.00000004e-08,
"SPI","result",2.64397892,1e-06,0x00
"SPI","disable",2.64398124,4.00000004e-08,
"SPI","enable",2.64398644,3.99999999e-08,
"SPI","result",2.64398724,1e-06,0x00
"SPI","disable",2.64398956,3.99999999e-08,
"SPI","enable",2.64401492,3.99999999e-08,
"SPI","result",2.64401576,9.6e-07,0x15
"SPI","disable",2.64401804,3.99999994e-08,
"SPI","enable",2.64402324,3.99999999e-08,
"SPI","result",2.64402404,1e-06,0x39
"SPI","disable",2.64402636,4.00000004e-08,
"SPI","enable",2.64403156,3.99999994e-08,
"SPI","result",2.64403236,1e-06,0x39
"SPI","disable",2.64403468,4.00000004e-08,
"SPI","enable",2.64403988,4.00000004e-08,
"SPI","result",2.64404068,1e-06,0x75
"SPI","disable",2.644043,3.99999999e-08,
"SPI","enable",2.6440482,4.00000004e-08,
"SPI","result",2.644049,9.6e-07,0x01
"SPI","disable",2.64405132,4.00000004e-08,
"SPI","enable",2.64405652,3.99999999e-08,
"SPI","result",2.64405732,9.6e-07,0x01
"SPI","disable",2.64405964,3.99999999e-08,
"SPI","enable",2.644085,4.00000004e-08,
"SPI","result",2.6440858,1e-06,0x15
"SPI","disable",2.64408812,3.99999994e-08,
"SPI","enable",2.64409332,3.99999999e-08,
"SPI","result",2.64409412,1e-06,0x39
"SPI","disable",2.64409644,3.99999999e-08,
"SPI","enable",2.64410164,3.99999994e-08,
"SPI","result",2.64410244,1e-06,0x39
"SPI","disable",2.64410476,4.00000004e-08,
"SPI","enable",2.64410996,3.99999999e-08,
"SPI","result",2.64411076,9.60000001e-07,0x75
"SPI","disable",2.64411308,3.99999999e-08,
"SPI","enable",2.64411828,4.00000004e-08,
"SPI","result",2.64411908,9.6e-07,0x02
"SPI","disable",2.6441214,4.00000004e-08,
"SPI","enable",2.64412656,3.99999999e-08,
"SPI","result",2.6441274,9.6e-07,0x02
"SPI","disable",2.64412968,3.99999999e-08,
"SPI","enable",2.64415508,4.00000004e-08,
"SPI","result",2.64415588,1e-06,0x15
"SPI","disable",2.6441582,3.99999994e-08,
"SPI","enable",2.6441634,3.99999999e-08,
"SPI","result",2.6441642,9.6e-07,0x39
"SPI","disable",2.64416652,3.99999999e-08,
"SPI","enable",2.64417172,3.99999994e-08,
"SPI","result",2.64417252,9.6e-07,0x39
"SPI","disable",2.64418088,4.00000004e-08,
"SPI","enable",2.64418608,4.00000004e-08,
"SPI","result",2.64418688,1e-06,0x75
"SPI","disable",2.6441892,4.00000004e-08,
"SPI","enable",2.6441944,4.00000004e-08,
"SPI","result",2.6441952,1e-06,0x03
"SPI","disable",2.64419752,3.99999994e-08,
"SPI","enable",2.64420272,3.99999999e-08,
"SPI","result",2.64420352,9.6e-07,0x03
"SPI","disable",2.64420584,3.99999999e-08,
"SPI","enable",2.6442312,3.99999999e-08,
"SPI","result",2.644232,1e-06,0x15
"SPI","disable",2.64423432,3.99999999e-08,
"SPI","enable",2.64423952,3.99999999e-08,
"SPI","result",2.64424032,1e-06,0x39
"SPI","disable",2.64424264,4.00000004e-08,
"SPI","enable",2.64424784,3.99999999e-08,
"SPI","result",2.64424864,1e-06,0x39
"SPI","disable",2.64425096,4.00000004e-08,
"SPI","enable",2.64425616,4.00000004e-08,
"SPI","result",2.64425696,1e-06,0x75
"SPI","disable",2.64425928,3.99999999e-08,
"SPI","enable",2.64426448,4.00000004e-08,
"SPI","result",2.64426528,9.6e-07,0x04
"SPI","disable",2.6442676,3.99999999e-08,
"SPI","enable",2.64427276,3.99999999e-08,
"SPI","result",2.6442736,9.6e-07,0x04
"SPI","disable",2.64427588,4.00000004e-08,
"SPI","enable",2.64430128,3.99999999e-08,
"SPI","result",2.64430208,1e-06,0x15
"SPI","disable",2.6443044,3.99999994e-08,
"SPI","enable",2.6443096,3.99999999e-08,
"SPI","result",2.6443104,1e-06,0x39
"SPI","disable",2.64431272,4.00000004e-08,
"SPI","enable",2.64431792,3.99999994e-08,
"SPI","result",2.64431872,9.6e-07,0x39
"SPI","disable",2.64432104,4.00000004e-08,
"SPI","enable",2.64432624,4.00000004e-08,
"SPI","result",2.64432704,9.6e-07,0x75
"SPI","disable",2.64432936,3.99999999e-08,
"SPI","enable",2.64433452,3.99999994e-08,
"SPI","result",2.64433536,9.6e-07,0x05
"SPI","disable",2.64433764,4.00000004e-08,
"SPI","enable",2.64434284,3.99999999e-08,
"SPI","result",2.64434364,1e-06,0x05
"SPI","disable",2.64434596,3.99999999e-08,
"SPI","enable",2.64437136,3.99999999e-08,
"SPI","result",2.64437216,1e-06,0x15
"SPI","disable",2.64437448,3.99999994e-08,
"SPI","enable",2.64437968,3.99999999e-08,
"SPI","result",2.64438048,9.6e-07,0x39
"SPI","disable",2.6443828,4.00000004e-08,
"SPI","enable",2.64438796,4.00000004e-08,
"SPI","result",2.6443888,9.6e-07,0x39
"SPI","disable",2.64439108,3.99999994e-08,
"SPI","enable",2.64439628,3.99999999e-08,
"SPI","result",2.64439708,1e-06,0x75
"SPI","disable",2.6443994,3.99999999e-08,
"SPI","enable",2.6444046,3.99999994e-08,
"SPI","result",2.6444054,1e-06,0x06
"SPI","disable",2.64440772,4.00000004e-08,
"SPI","enable",2.64441292,3.99999999e-08,
"SPI","result",2.64441372,1e-06,0x06
"SPI","disable",2.64441604,3.99999999e-08,
"SPI","enable",2.64445444,3.99999999e-08,
"SPI","result",2.64445524,9.6e-07,0x15
"SPI","disable",2.64445756,3.99999999e-08,
"SPI","enable",2.64446272,4.00000004e-08,
"SPI","result",2.64446356,9.6e-07,0x3A
"SPI","disable",2.64446584,3.99999999e-08,
"SPI","enable",2.64447104,4.00000004e-08,
"SPI","result",2.64447184,1e-06,0x3A
"SPI","disable",2.64447416,3.99999999e-08,
"SPI","enable",2.64447936,3.99999994e-08,
"SPI","result",2.64448016,1e-06,0x75
"SPI","disable",2.64448248,3.99999999e-08,
"SPI","enable",2.64448768,3.99999999e-08,
"SPI","result",2.64448848,1e-06,0x02
"SPI","disable",2.6444908,4.00000004e-08,
"SPI","enable",2.644496,3.99999999e-08,
"SPI","result",2.6444968,1e-06,0x02
"SPI","disable",2.64449912,3.99999999e-08,
"SPI","enable",2.64452792,3.99999999e-08,
"SPI","result",2.64452872,1e-06,0x15
"SPI","disable",2.64453104,4.00000004e-08,
"SPI","enable",2.64453624,4.00000004e-08,
"SPI","result",2.64453704,1e-06,0x3A
"SPI","disable",2.64453936,3.99999999e-08,
"SPI","enable",2.64454456,4.00000004e-08,
"SPI","result",2.64454536,1e-06,0x3A
"SPI","disable",2.64454768,3.99999999e-08,
"SPI","enable",2.64455288,3.99999999e-08,
"SPI","result",2.64455368,1e-06,0x75
"SPI","disable",2.644556,3.99999999e-08,
"SPI","enable",2.6445612,3.99999999e-08,
"SPI","result",2.644562,9.6e-07,0x04
"SPI","disable",2.64456432,3.99999994e-08,
"SPI","enable",2.64456948,3.99999999e-08,
"SPI","result",2.64457032,9.6e-07,0x04
"SPI","disable",2.6445726,3.99999999e-08,
"SPI","enable",2.64464852,3.99999994e-08,
"SPI","result",2.64464932,9.6e-07,0x15
"SPI","disable",2.64465164,3.99999999e-08,
"SPI","enable",2.64465684,3.99999999e-08,
"SPI","result",2.64465764,9.6e-07,0x3C
"SPI","disable",2.64465996,3.99999999e-08,
"SPI","enable",2.64466512,3.99999999e-08,
"SPI","result",2.64466596,9.6e-07,0x3C
"SPI","disable",2.64466824,3.99999999e-08,
"SPI","enable",2.64467344,3.99999999e-08,
"SPI","result",2.64467424,1e-06,0x75
"SPI","disable",2.64467656,3.99999994e-08,
"SPI","enable",2.64468176,3.99999999e-08,
"SPI","result",2.64468256,1e-06,0x02
"SPI","disable",2.64468488,4.00000004e-08,
"SPI","enable",2.64469008,3.99999994e-08,
"SPI","result",2.64469088,1e-06,0x02
"SPI","disable",2.6446932,4.00000004e-08,
"SPI","enable",2.644722,4.00000004e-08,
"SPI","result",2.64472284,9.6e-07,0x15
"SPI","disable",2.64472512,3.99999999e-08,
"SPI","enable",2.64473032,4.00000004e-08,
"SPI","result",2.64473112,1e-06,0x3C
"SPI","disable",2.64473344,4.00000004e-08,
"SPI","enable",2.64473864,3.99999999e-08,
"SPI","result",2.64473944,1e-06,0x3C
"SPI","disable",2.64474176,3.99999999e-08,
"SPI","enable",2.64474696,4.00000004e-08,
"SPI","result",2.64474776,1e-06,0x75
"SPI","disable",2.64475008,3.99999994e-08,
"SPI","enable",2.64475528,3.99999999e-08,
"SPI","result",2.64475608,1e-06,0x04
"SPI","disable",2.6447584,3.99999999e-08,
"SPI","enable",2.6447636,3.99999994e-08,
"SPI","result",2.6447644,9.6e-07,0x04
"SPI","disable",2.64476672,4.00000004e-08,
"SPI","enable",2.64480508,4.00000004e-08,
"SPI","result",2.64480588,1e-06,0x15
"SPI","disable",2.6448082,4.00000004e-08,
"SPI","enable",2.6448134,3.99999999e-08,
"SPI","result",2.6448142,1e-06,0x3D
"SPI","disable",2.64481652,4.00000004e-08,
"SPI","enable",2.64482172,4.00000004e-08,
"SPI","result",2.64482252,1e-06,0x3D
"SPI","disable",2.64482484,3.99999994e-08,
"SPI","enable",2.64483004,4.00000004e-08,
"SPI","result",2.64483084,9.6e-07,0x75
"SPI","disable",2.64483316,3.99999999e-08,
"SPI","enable",2.64483836,3.99999994e-08,
"SPI","result",2.64483916,9.6e-07,0x00
"SPI","disable",2.64484148,3.99999999e-08,
"SPI","enable",2.64484664,4.00000004e-08,
"SPI","result",2.64484748,9.6e-07,0x00
"SPI","disable",2.64484976,3.99999999e-08,
"SPI","enable",2.64487516,4.00000004e-08,
"SPI","result",2.64487596,1e-06,0x15
"SPI","disable",2.64487828,4.00000004e-08,
"SPI","enable",2.64488348,3.99999999e-08,
"SPI","result",2.64488428,1e-06,0x3D
"SPI","disable",2.6448866,4.00000004e-08,
"SPI","enable",2.6448918,4.00000004e-08,
"SPI","result",2.6448926,9.6e-07,0x3D
"SPI","disable",2.64489492,3.99999994e-08,
"SPI","enable",2.64490008,3.99999994e-08,
"SPI","result",2.64490092,9.6e-07,0x75
"SPI","disable",2.6449032,4.00000004e-08,
"SPI","enable",2.6449084,4.00000004e-08,
"SPI","result",2.6449092,1e-06,0x01
"SPI","disable",2.64491152,3.99999999e-08,
"SPI","enable",2.64491672,4.00000004e-08,
"SPI","result",2.64491752,1e-06,0x01
"SPI","disable",2.64491984,3.99999999e-08,
"SPI","enable",2.64494524,3.99999999e-08,
"SPI","result",2.64494604,9.6e-07,0x15
"SPI","disable",2.64494836,4.00000004e-08,
"SPI","enable",2.64495356,3.99999999e-08,
"SPI","result",2.64495436,9.6e-07,0x3D
"SPI","disable",2.64495668,4.00000004e-08,
"SPI","enable",2.64496184,3.99999999e-08,
"SPI","result",2.64496268,9.6e-07,0x3D
"SPI","disable",2.64496496,4.00000004e-08,
"SPI","enable",2.64497016,3.99999994e-08,
"SPI","result",2.64497096,1e-06,0x75
"SPI","disable",2.64497328,4.00000004e-08,
"SPI","enable",2.64497848,4.00000004e-08,
"SPI","result",2.64497928,1e-06,0x02
"SPI","disable",2.6449816,3.99999999e-08,
"SPI","enable",2.6449868,4.00000004e-08,
"SPI","result",2.6449876,1e-06,0x02
"SPI","disable",2.64498992,4.00000004e-08,
"SPI","enable",2.64501528,3.99999999e-08,
"SPI","result",2.64501612,9.6e-07,0x15
"SPI","disable",2.6450184,3.99999999e-08,
"SPI","enable",2.6450236,3.99999999e-08,
"SPI","result",2.64502444,9.6e-07,0x3D
"SPI","disable",2.64502672,3.99999994e-08,
"SPI","enable",2.64503192,3.99999999e-08,
"SPI","result",2.64503272,1e-06,0x3D
"SPI","disable",2.64503504,4.00000004e-08,
"SPI","enable",2.64504024,3.99999994e-08,
"SPI","result",2.64504104,1e-06,0x75
"SPI","disable",2.64504336,4.00000004e-08,
"SPI","enable",2.64504856,3.99999999e-08,
"SPI","result",2.64504936,1e-06,0x03
"SPI","disable",2.64505168,3.99999999e-08,
"SPI","enable",2.64505688,4.00000004e-08,
"SPI","result",2.64505768,9.6e-07,0x03
"SPI","disable",2.64506,4.00000004e-08,
"SPI","enable",2.64508536,3.99999999e-08,
"SPI","result",2.64508616,1e-06,0x15
"SPI","disable",2.64508848,3.99999999e-08,
"SPI","enable",2.64509368,4.00000004e-08,
"SPI","result",2.64509448,1e-06,0x3D
"SPI","disable",2.6450968,3.99999994e-08,
"SPI","enable",2.645102,3.99999999e-08,
"SPI","result",2.6451028,1e-06,0x3D
"SPI","disable",2.64510512,3.99999999e-08,
"SPI","enable",2.64511032,3.99999994e-08,
"SPI","result",2.64511112,9.6e-07,0x75
"SPI","disable",2.64511344,4.00000004e-08,
"SPI","enable",2.64511864,3.99999999e-08,
"SPI","result",2.64511944,9.6e-07,0x04
"SPI","disable",2.64512176,3.99999999e-08,
"SPI","enable",2.64512692,3.99999994e-08,
"SPI","result",2.64512776,9.6e-07,0x04
"SPI","disable",2.64513004,3.99999999e-08,
"SPI","enable",2.64515544,3.99999999e-08,
"SPI","result",2.64515624,1e-06,0x15
"SPI","disable",2.64515856,3.99999999e-08,
"SPI","enable",2.64516376,4.00000004e-08,
"SPI","result",2.64516456,1e-06,0x3D
"SPI","disable",2.64516688,3.99999994e-08,
"SPI","enable",2.64517208,3.99999999e-08,
"SPI","result",2.64517288,9.6e-07,0x3D
"SPI","disable",2.6451752,3.99999999e-08,
"SPI","enable",2.6451804,3.99999994e-08,
"SPI","result",2.6451812,9.6e-07,0x75
"SPI","disable",2.64518348,3.99999994e-08,
"SPI","enable",2.64518868,4.00000004e-08,
"SPI","result",2.64518952,9.6e-07,0x05
"SPI","disable",2.6451918,3.99999999e-08,
"SPI","enable",2.645197,3.99999999e-08,
"SPI","result",2.6451978,1e-06,0x05
"SPI","disable",2.6452052,4.00000004e-08,
"SPI","enable",2.64523056,4.00000004e-08,
"SPI","result",2.6452314,9.6e-07,0x15
"SPI","disable",2.64523368,3.99999999e-08,
"SPI","enable",2.64523888,4.00000004e-08,
"SPI","result",2.64523968,1e-06,0x3D
"SPI","disable",2.645242,3.99999994e-08,
"SPI","enable",2.6452472,4.00000004e-08,
"SPI","result",2.645248,1e-06,0x3D
"SPI","disable",2.64525032,3.99999999e-08,
"SPI","enable",2.64525552,3.99999999e-08,
"SPI","result",2.64525632,1e-06,0x75
"SPI","disable",2.64525864,3.99999999e-08,
"SPI","enable",2.64526384,3.99999999e-08,
"SPI","result",2.64526464,9.6e-07,0x06
"SPI","disable",2.64526696,3.99999999e-08,
"SPI","enable",2.64527216,3.99999999e-08,
"SPI","result",2.64527296,9.6e-07,0x06
"SPI","disable",2.64527524,3.99999999e-08,
"SPI","enable",2.64531364,4.00000004e-08,
"SPI","result",2.64531444,1e-06,0x15
"SPI","disable",2.64531676,3.99999994e-08,
"SPI","enable",2.64532196,4.00000004e-08,
"SPI","result",2.64532276,1e-06,0x3E
"SPI","disable",2.64532508,3.99999999e-08,
"SPI","enable",2.64533028,3.99999994e-08,
"SPI","result",2.64533108,1e-06,0x3E
"SPI","disable",2.6453334,3.99999999e-08,
"SPI","enable",2.6453386,3.99999999e-08,
"SPI","result",2.6453394,9.6e-07,0x75
"SPI","disable",2.64534172,3.99999999e-08,
"SPI","enable",2.64534688,3.99999999e-08,
"SPI","result",2.64534772,9.6e-07,0x02
"SPI","disable",2.64535,3.99999999e-08,
"SPI","enable",2.6453552,4.00000004e-08,
"SPI","result",2.645356,1e-06,0x02
"SPI","disable",2.64535832,3.99999994e-08,
"SPI","enable",2.64538716,4.00000004e-08,
"SPI","result",2.64538796,1e-06,0x15
"SPI","disable",2.64539028,3.99999999e-08,
"SPI","enable",2.64539548,3.99999999e-08,
"SPI","result",2.64539628,9.6e-07,0x3E
"SPI","disable",2.6453986,3.99999999e-08,
"SPI","enable",2.6454038,3.99999999e-08,
"SPI","result",2.6454046,9.6e-07,0x3E
"SPI","disable",2.64540688,3.99999999e-08,
"SPI","enable",2.64541208,3.99999999e-08,
"SPI","result",2.64541292,9.6e-07,0x75
"SPI","disable",2.6454152,4.00000004e-08,
"SPI","enable",2.6454204,3.99999999e-08,
"SPI","result",2.6454212,1e-06,0x04
"SPI","disable",2.64542352,3.99999999e-08,
"SPI","enable",2.64542872,4.00000004e-08,
"SPI","result",2.64542952,1e-06,0x04
"SPI","disable",2.64543184,3.99999994e-08,
"SPI","enable",2.64547024,4.00000004e-08,
"SPI","result",2.64547104,9.6e-07,0x15
"SPI","disable",2.64547336,4.00000004e-08,
"SPI","enable",2.64547852,3.99999999e-08,
"SPI","result",2.64547936,9.6e-07,0x3F
"SPI","disable",2.64548164,3.99999999e-08,
"SPI","enable",2.64548684,4.00000004e-08,
"SPI","result",2.64548764,1e-06,0x3F
"SPI","disable",2.64548996,4.00000004e-08,
"SPI","enable",2.64549516,3.99999999e-08,
"SPI","result",2.64549596,1e-06,0x75
"SPI","disable",2.64549828,4.00000004e-08,
"SPI","enable",2.64550348,4.00000004e-08,
"SPI","result",2.64550428,1e-06,0x00
"SPI","disable",2.6455066,3.99999994e-08,
"SPI","enable",2.6455118,4.00000004e-08,
"SPI","result",2.6455126,1e-06,0x00
"SPI","disable",2.64551492,3.99999999e-08,
"SPI","enable",2.64554028,3.99999994e-08,
"SPI","result",2.64554112,9.6e-07,0x15
"SPI","disable",2.6455434,3.99999999e-08,
"SPI","enable",2.6455486,3.99999999e-08,
"SPI","result",2.6455494,1e-06,0x3F
"SPI","disable",2.64555172,3.99999999e-08,
"SPI","enable",2.64555692,3.99999999e-08,
"SPI","result",2.64555772,1e-06,0x3F
"SPI","disable",2.64556004,4.00000004e-08,
"SPI","enable",2.64556524,3.99999999e-08,
"SPI","result",2.64556604,1e-06,0x75
"SPI","disable",2.64556836,4.00000004e-08,
"SPI","enable",2.64557356,4.00000004e-08,
"SPI","result",2.64557436,9.6e-07,0x01
"SPI","disable",2.64557668,3.99999999e-08,
"SPI","enable",2.64558188,4.00000004e-08,
"SPI","result",2.64558268,9.6e-07,0x01
"SPI","disable",2.645585,3.99999999e-08,
"SPI","enable",2.64561036,3.99999999e-08,
"SPI","result",2.64561116,1e-06,0x15
"SPI","disable",2.64561348,3.99999999e-08,
"SPI","enable",2.64561868,3.99999999e-08,
"SPI","result",2.64561948,1e-06,0x3F
"SPI","disable",2.6456218,3.99999999e-08,
"SPI","enable",2.645627,3.99999999e-08,
"SPI","result",2.6456278,1e-06,0x3F
"SPI","disable",2.64563012,4.00000004e-08,
"SPI","enable",2.64563532,4.00000004e-08,
"SPI","result",2.64563612,9.60000001e-07,0x75
"SPI","disable",2.64563844,4.00000004e-08,
"SPI","enable",2.6456436,3.99999999e-08,
"SPI","result",2.64564444,9.6e-07,0x02
"SPI","disable",2.64564672,4.00000004e-08,
"SPI","enable",2.64565192,3.99999994e-08,
"SPI","result",2.64565272,1e-06,0x02
"SPI","disable",2.64565504,4.00000004e-08,
"SPI","enable",2.64568044,3.99999999e-08,
"SPI","result",2.64568124,1e-06,0x15
"SPI","disable",2.64568356,3.99999999e-08,
"SPI","enable",2.64568876,3.99999999e-08,
"SPI","result",2.64568956,9.6e-07,0x3F
"SPI","disable",2.64569188,3.99999994e-08,
"SPI","enable",2.64569708,3.99999994e-08,
"SPI","result",2.64569788,9.6e-07,0x3F
"SPI","disable",2.6457002,4.00000004e-08,
"SPI","enable",2.64570536,4.00000004e-08,
"SPI","result",2.6457062,9.60000001e-07,0x75
"SPI","disable",2.64570848,3.99999994e-08,
"SPI","enable",2.64571368,3.99999999e-08,
"SPI","result",2.64571448,1e-06,0x03
"SPI","disable",2.6457168,3.99999999e-08,
"SPI","enable",2.645722,3.99999999e-08,
"SPI","result",2.6457228,1e-06,0x03
"SPI","disable",2.64572512,4.00000004e-08,
"SPI","enable",2.64575052,4.00000004e-08,
"SPI","result",2.64575132,9.6e-07,0x15
"SPI","disable",2.64575364,3.99999999e-08,
"SPI","enable",2.64575884,3.99999999e-08,
"SPI","result",2.64575964,9.6e-07,0x3F
"SPI","disable",2.64576192,4.00000004e-08,
"SPI","enable",2.64576712,4.00000004e-08,
"SPI","result",2.64576796,9.6e-07,0x3F
"SPI","disable",2.64577024,3.99999999e-08,
"SPI","enable",2.64577544,4.00000004e-08,
"SPI","result",2.64577624,1e-06,0x75
"SPI","disable",2.64577856,3.99999994e-08,
"SPI","enable",2.64578376,3.99999994e-08,
"SPI","result",2.64578456,1e-06,0x04
"SPI","disable",2.64578688,3.99999999e-08,
"SPI","enable",2.64579208,3.99999999e-08,
"SPI","result",2.64579288,1e-06,0x04
"SPI","disable",2.6457952,4.00000004e-08,
"SPI","enable",2.64582056,3.99999999e-08,
"SPI","result",2.6458214,9.6e-07,0x15
"SPI","disable",2.64582368,4.00000004e-08,
"SPI","enable",2.64582888,3.99999999e-08,
"SPI","result",2.64582968,1e-06,0x3F
"SPI","disable",2.645832,4.00000004e-08,
"SPI","enable",2.6458372,4.00000004e-08,
"SPI","result",2.645838,1e-06,0x3F
"SPI","disable",2.64584032,3.99999994e-08,
"SPI","enable",2.64584552,4.00000004e-08,
"SPI","result",2.64584632,1e-06,0x75
"SPI","disable",2.64584864,3.99999999e-08,
"SPI","enable",2.64585384,3.99999999e-08,
"SPI","result",2.64585464,1e-06,0x05
"SPI","disable",2.64585696,3.99999999e-08,
"SPI","enable",2.64586216,3.99999999e-08,
"SPI","result",2.64586296,9.6e-07,0x05
"SPI","disable",2.64586528,3.99999999e-08,
"SPI","enable",2.64589064,3.99999999e-08,
"SPI","result",2.64589144,1e-06,0x15
"SPI","disable",2.64589376,4.00000004e-08,
"SPI","enable",2.64589896,3.99999999e-08,
"SPI","result",2.64589976,1e-06,0x3F
"SPI","disable",2.64590208,4.00000004e-08,
"SPI","enable",2.64590728,4.00000004e-08,
"SPI","result",2.64590808,1e-06,0x3F
"SPI","disable",2.6459104,3.99999999e-08,
"SPI","enable",2.6459156,4.00000004e-08,
"SPI","result",2.6459164,9.6e-07,0x75
"SPI","disable",2.64591872,3.99999999e-08,
"SPI","enable",2.64592392,3.99999999e-08,
"SPI","result",2.64592472,9.6e-07,0x06
"SPI","disable",2.64592704,3.99999999e-08,
"SPI","enable",2.6459322,4.00000004e-08,
"SPI","result",2.64593304,9.6e-07,0x06
"SPI","disable",2.64593532,4.00000004e-08,
"SPI","enable",2.64597372,3.99999994e-08,
"SPI","result",2.64597452,1e-06,0x15
"SPI","disable",2.64597684,4.00000004e-08,
"SPI","enable",2.64598204,4.00000004e-08,
"SPI","result",2.64598284,1e-06,0x40
"SPI","disable",2.64598516,4.00000004e-08,
"SPI","enable",2.64599036,4.00000004e-08,
"SPI","result",2.64599116,9.6e-07,0x40
"SPI","disable",2.64599348,3.99999999e-08,
"SPI","enable",2.64599868,3.99999999e-08,
"SPI","result",2.64599948,9.6e-07,0x75
"SPI","disable",2.64600176,4.00000004e-08,
"SPI","enable",2.64600696,4.00000004e-08,
"SPI","result",2.6460078,9.6e-07,0x02
"SPI","disable",2.64601008,3.99999999e-08,
"SPI","enable",2.64601528,3.99999999e-08,
"SPI","result",2.64601608,1e-06,0x02
"SPI","disable",2.6460184,4.00000004e-08,
"SPI","enable",2.64604724,3.99999994e-08,
"SPI","result",2.64604804,9.6e-07,0x15
"SPI","disable",2.64605036,4.00000004e-08,
"SPI","enable",2.64605556,3.99999999e-08,
"SPI","result",2.64605636,9.6e-07,0x40
"SPI","disable",2.64605868,3.99999999e-08,
"SPI","enable",2.64606384,3.99999994e-08,
"SPI","result",2.64606468,9.6e-07,0x40
"SPI","disable",2.64606696,3.99999999e-08,
"SPI","enable",2.64607216,3.99999999e-08,
"SPI","result",2.64607296,1e-06,0x75
"SPI","disable",2.64607528,3.99999999e-08,
"SPI","enable",2.64608048,3.99999999e-08,
"SPI","result",2.64608128,1e-06,0x04
"SPI","disable",2.6460836,4.00000004e-08,
"SPI","enable",2.6460888,3.99999999e-08,
"SPI","result",2.6460896,1e-06,0x04
"SPI","disable",2.64609192,4.00000004e-08,
"SPI","enable",2.6461678,3.99999999e-08,
"SPI","result",2.6461686,9.99999999e-07,0x15
"SPI","disable",2.64617092,3.99999999e-08,
"SPI","enable",2.64617612,4.00000004e-08,
"SPI","result",2.64617692,1e-06,0x42
"SPI","disable",2.64617924,4.00000004e-08,
"SPI","enable",2.64618444,3.99999999e-08,
"SPI","result",2.64618524,1e-06,0x42
"SPI","disable",2.64618756,4.00000004e-08,
"SPI","enable",2.64619276,4.00000004e-08,
"SPI","result",2.64619356,9.6e-07,0x75
"SPI","disable",2.64619588,3.99999994e-08,
"SPI","enable",2.64620104,3.99999999e-08,
"SPI","result",2.64620188,9.6e-07,0x02
"SPI","disable",2.64620416,4.00000004e-08,
"SPI","enable",2.64620936,4.00000004e-08,
"SPI","result",2.64621016,1e-06,0x02
"SPI","disable",2.64621248,3.99999999e-08,
"SPI","enable",2.64624636,3.99999999e-08,
"SPI","result",2.6462472,9.6e-07,0x15
"SPI","disable",2.64624948,3.99999999e-08,
"SPI","enable",2.64625468,3.99999999e-08,
"SPI","result",2.64625548,1e-06,0x42
"SPI","disable",2.6462578,4.00000004e-08,
"SPI","enable",2.646263,3.99999999e-08,
"SPI","result",2.6462638,1e-06,0x42
"SPI","disable",2.64626612,4.00000004e-08,
"SPI","enable",2.64627132,4.00000004e-08,
"SPI","result",2.64627212,1e-06,0x75
"SPI","disable",2.64627444,3.99999999e-08,
"SPI","enable",2.64627964,4.00000004e-08,
"SPI","result",2.64628044,9.6e-07,0x04
"SPI","disable",2.64628276,3.99999999e-08,
"SPI","enable",2.64628796,3.99999999e-08,
"SPI","result",2.64628876,9.6e-07,0x04
"SPI","disable",2.64629108,3.99999999e-08,
"SPI","enable",2.64632944,3.99999999e-08,
"SPI","result",2.64633024,1e-06,0x15
"SPI","disable",2.64633256,4.00000004e-08,
"SPI","enable",2.64633776,3.99999994e-08,
"SPI","result",2.64633856,1e-06,0x43
"SPI","disable",2.64634088,4.00000004e-08,
"SPI","enable",2.64634608,4.00000004e-08,
"SPI","result",2.64634688,1e-06,0x43
"SPI","disable",2.6463492,3.99999999e-08,
"SPI","enable",2.6463544,4.00000004e-08,
"SPI","result",2.6463552,9.6e-07,0x75
"SPI","disable",2.64635752,4.00000004e-08,
"SPI","enable",2.64636272,3.99999999e-08,
"SPI","result",2.64636352,9.6e-07,0x00
"SPI","disable",2.6463658,3.99999999e-08,
"SPI","enable",2.646371,4.00000004e-08,
"SPI","result",2.64637184,9.6e-07,0x00
"SPI","disable",2.64637412,4.00000004e-08,
"SPI","enable",2.64639952,3.99999999e-08,
"SPI","result",2.64640032,1e-06,0x15
"SPI","disable",2.64640264,4.00000004e-08,
"SPI","enable",2.64640784,3.99999994e-08,
"SPI","result",2.64640864,1e-06,0x43
"SPI","disable",2.64641096,4.00000004e-08,
"SPI","enable",2.64641616,4.00000004e-08,
"SPI","result",2.64641696,9.6e-07,0x43
"SPI","disable",2.64641928,3.99999999e-08,
"SPI","enable",2.64642444,3.99999994e-08,
"SPI","result",2.64642528,9.6e-07,0x75
"SPI","disable",2.64642756,4.00000004e-08,
"SPI","enable",2.64643276,3.99999999e-08,
"SPI","result",2.64643356,9.99999999e-07,0x01
"SPI","disable",2.64643588,3.99999999e-08,
"SPI","enable",2.64644108,4.00000004e-08,
"SPI","result",2.64644188,1e-06,0x01
"SPI","disable",2.6464442,4.00000004e-08,
"SPI","enable",2.6464696,3.99999999e-08,
"SPI","result",2.6464704,9.6e-07,0x15
"SPI","disable",2.64647272,4.00000004e-08,
"SPI","enable",2.64647792,3.99999994e-08,
"SPI","result",2.64647872,9.6e-07,0x43
"SPI","disable",2.64648104,4.00000004e-08,
"SPI","enable",2.6464862,4.00000004e-08,
"SPI","result",2.64648704,9.6e-07,0x43
"SPI","disable",2.64648932,3.99999999e-08,
"SPI","enable",2.64649452,3.99999994e-08,
"SPI","result",2.64649532,1e-06,0x75
"SPI","disable",2.64649764,3.99999999e-08,
"SPI","enable",2.64650284,3.99999999e-08,
"SPI","result",2.64650364,9.99999999e-07,0x02
"SPI","disable",2.64650596,3.99999999e-08,
"SPI","enable",2.64651116,3.99999999e-08,
"SPI","result",2.64651196,1e-06,0x02
"SPI","disable",2.64651428,4.00000004e-08,
"SPI","enable",2.64653964,3.99999999e-08,
"SPI","result",2.64654048,9.6e-07,0x15
"SPI","disable",2.64654276,4.00000004e-08,
"SPI","enable",2.64654796,4.00000004e-08,
"SPI","result",2.64654876,1e-06,0x43
"SPI","disable",2.64655108,3.99999994e-08,
"SPI","enable",2.64655628,4.00000004e-08,
"SPI","result",2.64655708,1e-06,0x43
"SPI","disable",2.6465594,3.99999999e-08,
"SPI","enable",2.6465646,3.99999994e-08,
"SPI","result",2.6465654,1e-06,0x75
"SPI","disable",2.64656772,3.99999999e-08,
"SPI","enable",2.64657292,3.99999999e-08,
"SPI","result",2.64657372,9.99999999e-07,0x03
"SPI","disable",2.64657604,3.99999999e-08,
"SPI","enable",2.64658124,3.99999999e-08,
"SPI","result",2.64658204,9.6e-07,0x03
"SPI","disable",2.64658436,4.00000004e-08,
"SPI","enable",2.64660972,3.99999999e-08,
"SPI","result",2.64661052,1e-06,0x15
"SPI","disable",2.64661284,4.00000004e-08,
"SPI","enable",2.64661804,4.00000004e-08,
"SPI","result",2.64661884,1e-06,0x43
"SPI","disable",2.64662116,3.99999994e-08,
"SPI","enable",2.64662636,4.00000004e-08,
"SPI","result",2.64662716,1e-06,0x43
"SPI","disable",2.64662948,3.99999999e-08,
"SPI","enable",2.64663468,3.99999999e-08,
"SPI","result",2.64663548,9.6e-07,0x75
"SPI","disable",2.6466378,3.99999999e-08,
"SPI","enable",2.646643,3.99999999e-08,
"SPI","result",2.6466438,9.6e-07,0x04
"SPI","disable",2.64664612,3.99999994e-08,
"SPI","enable",2.64665128,3.99999999e-08,
"SPI","result",2.64665212,9.6e-07,0x04
"SPI","disable",2.6466544,3.99999999e-08,
"SPI","enable",2.6466798,3.99999999e-08,
"SPI","result",2.6466806,1e-06,0x15
"SPI","disable",2.64668292,4.00000004e-08,
"SPI","enable",2.64668812,4.00000004e-08,
"SPI","result",2.64668892,1e-06,0x43
"SPI","disable",2.64669124,3.99999999e-08,
"SPI","enable",2.64669644,4.00000004e-08,
"SPI","result",2.64669724,9.6e-07,0x43
"SPI","disable",2.64669956,3.99999999e-08,
"SPI","enable",2.64670472,4.00000004e-08,
"SPI","result",2.64670556,9.6e-07,0x75
"SPI","disable",2.64670784,3.99999999e-08,
"SPI","enable",2.64671304,4.00000004e-08,
"SPI","result",2.64671384,1e-06,0x05
"SPI","disable",2.64671616,4.00000004e-08,
"SPI","enable",2.64672136,3.99999999e-08,
"SPI","result",2.64672216,1e-06,0x05
"SPI","disable",2.64672448,3.99999999e-08,
"SPI","enable",2.64674988,3.99999999e-08,
"SPI","result",2.64675068,9.60000001e-07,0x15
"SPI","disable",2.646753,4.00000004e-08,
"SPI","enable",2.6467582,4.00000004e-08,
"SPI","result",2.646759,9.6e-07,0x43
"SPI","disable",2.64676132,3.99999999e-08,
"SPI","enable",2.64676648,3.99999999e-08,
"SPI","result",2.64676732,9.6e-07,0x43
"SPI","disable",2.6467696,4.00000004e-08,
"SPI","enable",2.6467748,3.99999999e-08,
"SPI","result",2.6467756,1e-06,0x75
"SPI","disable",2.64677792,3.99999999e-08,
"SPI","enable",2.64678312,4.00000004e-08,
"SPI","result",2.64678392,1e-06,0x06
"SPI","disable",2.64678624,4.00000004e-08,
"SPI","enable",2.64679144,3.99999999e-08,
"SPI","result",2.64679224,1e-06,0x06
"SPI","disable",2.64679456,4.00000004e-08,
"SPI","enable",2.64683296,4.00000004e-08,
"SPI","result",2.64683376,9.6e-07,0x15
"SPI","disable",2.64683608,3.99999999e-08,
"SPI","enable",2.64684124,3.99999994e-08,
"SPI","result",2.64684208,9.6e-07,0x44
"SPI","disable",2.64684436,4.00000004e-08,
"SPI","enable",2.64684956,3.99999999e-08,
"SPI","result",2.64685036,9.99999999e-07,0x44
"SPI","disable",2.64685268,3.99999999e-08,
"SPI","enable",2.64685788,3.99999999e-08,
"SPI","result",2.64685868,1e-06,0x75
"SPI","disable",2.646861,4.00000004e-08,
"SPI","enable",2.6468662,3.99999999e-08,
"SPI","result",2.646867,1e-06,0x02
"SPI","disable",2.64686932,4.00000004e-08,
"SPI","enable",2.64687452,4.00000004e-08,
"SPI","result",2.64687532,9.6e-07,0x02
"SPI","disable",2.64687764,3.99999994e-08,
"SPI","enable",2.64690644,4.00000004e-08,
"SPI","result",2.64690724,1e-06,0x15
"SPI","disable",2.64690956,3.99999999e-08,
"SPI","enable",2.64691476,3.99999999e-08,
"SPI","result",2.64691556,1e-06,0x44
"SPI","disable",2.64691788,3.99999999e-08,
"SPI","enable",2.64692308,3.99999999e-08,
"SPI","result",2.64692388,1e-06,0x44
"SPI","disable",2.6469262,3.99999999e-08,
"SPI","enable",2.6469314,3.99999999e-08,
"SPI","result",2.6469322,9.6e-07,0x75
"SPI","disable",2.64693452,4.00000004e-08,
"SPI","enable",2.64693972,3.99999994e-08,
"SPI","result",2.64694052,9.6e-07,0x04
"SPI","disable",2.64694284,4.00000004e-08,
"SPI","enable",2.646948,3.99999999e-08,
"SPI","result",2.64694884,9.6e-07,0x04
"SPI","disable",2.64695112,3.99999999e-08,
"SPI","enable",2.64698952,3.99999999e-08,
"SPI","result",2.64699032,1e-06,0x15
"SPI","disable",2.64699264,3.99999999e-08,
"SPI","enable",2.64699784,3.99999999e-08,
"SPI","result",2.64699864,1e-06,0x45
"SPI","disable",2.64700096,3.99999994e-08,
"SPI","enable",2.64700616,3.99999999e-08,
"SPI","result",2.64700696,9.6e-07,0x45
"SPI","disable",2.64700928,4.00000004e-08,
"SPI","enable",2.64701448,3.99999994e-08,
"SPI","result",2.64701528,9.6e-07,0x75
"SPI","disable",2.6470176,4.00000004e-08,
"SPI","enable",2.64702276,3.99999999e-08,
"SPI","result",2.6470236,9.6e-07,0x00
"SPI","disable",2.64702588,3.99999999e-08,
"SPI","enable",2.64703108,3.99999994e-08,
"SPI","result",2.64703188,1e-06,0x00
"SPI","disable",2.6470342,4.00000004e-08,
"SPI","enable",2.6470596,3.99999999e-08,
"SPI","result",2.6470604,1e-06,0x15
"SPI","disable",2.64706272,3.99999999e-08,
"SPI","enable",2.64706792,4.00000004e-08,
"SPI","result",2.64706872,9.6e-07,0x45
"SPI","disable",2.64707104,3.99999994e-08,
"SPI","enable",2.6470762,3.99999999e-08,
"SPI","result",2.64707704,9.6e-07,0x45
"SPI","disable",2.64707932,4.00000004e-08,
"SPI","enable",2.64708452,4.00000004e-08,
"SPI","result",2.64708532,1e-06,0x75
"SPI","disable",2.64708764,3.99999994e-08,
"SPI","enable",2.64709284,4.00000004e-08,
"SPI","result",2.64709364,1e-06,0x01
"SPI","disable",2.64709596,3.99999999e-08,
"SPI","enable",2.64710116,3.99999994e-08,
"SPI","result",2.64710196,1e-06,0x01
"SPI","disable",2.64710428,3.99999999e-08,
"SPI","enable",2.64712968,3.99999999e-08,
"SPI","result",2.64713048,9.6e-07,0x15
"SPI","disable",2.6471328,3.99999999e-08,
"SPI","enable",2.64713796,4.00000004e-08,
"SPI","result",2.6471388,9.6e-07,0x45
"SPI","disable",2.64714108,4.00000004e-08,
"SPI","enable",2.64714628,3.99999999e-08,
"SPI","result",2.64714708,1e-06,0x45
"SPI","disable",2.6471494,4.00000004e-08,
"SPI","enable",2.6471546,4.00000004e-08,
"SPI","result",2.6471554,1e-06,0x75
"SPI","disable",2.64715772,3.99999994e-08,
"SPI","enable",2.64716292,4.00000004e-08,
"SPI","result",2.64716372,1e-06,0x02
"SPI","disable",2.64716604,3.99999999e-08,
"SPI","enable",2.64717124,3.99999994e-08,
"SPI","result",2.64717204,9.6e-07,0x02
"SPI","disable",2.64717436,3.99999999e-08,
"SPI","enable",2.64719972,3.99999999e-08,
"SPI","result",2.64720052,1e-06,0x15
"SPI","disable",2.64720284,3.99999999e-08,
"SPI","enable",2.64720804,3.99999999e-08,
"SPI","result",2.64720884,1e-06,0x45
"SPI","disable",2.64721116,4.00000004e-08,
"SPI","enable",2.64721636,4.00000004e-08,
"SPI","result",2.64721716,1e-06,0x45
"SPI","disable",2.64721948,4.00000004e-08,
"SPI","enable",2.64722468,4.00000004e-08,
"SPI","result",2.64722548,1e-06,0x75
"SPI","disable",2.6472278,3.99999999e-08,
"SPI","enable",2.647233,3.99999999e-08,
"SPI","result",2.6472338,9.6e-07,0x03
"SPI","disable",2.64723612,3.99999999e-08,
"SPI","enable",2.64724128,4.00000004e-08,
"SPI","result",2.64724212,9.6e-07,0x03
"SPI","disable",2.6472444,3.99999999e-08,
"SPI","enable",2.64727588,3.99999994e-08,
"SPI","result",2.64727668,9.6e-07,0x15
"SPI","disable",2.647279,3.99999999e-08,
"SPI","enable",2.64728416,4.00000004e-08,
"SPI","result",2.647285,9.6e-07,0x45
"SPI","disable",2.64728728,4.00000004e-08,
"SPI","enable",2.64729248,3.99999999e-08,
"SPI","result",2.64729328,1e-06,0x45
"SPI","disable",2.6472956,3.99999999e-08,
"SPI","enable",2.6473008,4.00000004e-08,
"SPI","result",2.6473016,1e-06,0x75
"SPI","disable",2.64730392,3.99999994e-08,
"SPI","enable",2.64730912,3.99999999e-08,
"SPI","result",2.64730992,1e-06,0x04
"SPI","disable",2.64731224,3.99999999e-08,
"SPI","enable",2.64731744,3.99999994e-08,
"SPI","result",2.64731824,1e-06,0x04
"SPI","disable",2.64732056,4.00000004e-08,
"SPI","enable",2.64734592,4.00000004e-08,
"SPI","result",2.64734676,9.6e-07,0x15
"SPI","disable",2.64734904,3.99999999e-08,
"SPI","enable",2.64735424,4.00000004e-08,
"SPI","result",2.64735504,1e-06,0x45
"SPI","disable",2.64735736,4.00000004e-08,
"SPI","enable",2.64736256,3.99999999e-08,
"SPI","result",2.64736336,1e-06,0x45
"SPI","disable",2.64736568,3.99999999e-08,
"SPI","enable",2.64737088,4.00000004e-08,
"SPI","result",2.64737168,1e-06,0x75
"SPI","disable",2.647374,3.99999994e-08,
"SPI","enable",2.6473792,3.99999999e-08,
"SPI","result",2.64738,1e-06,0x05
"SPI","disable",2.64738232,3.99999999e-08,
"SPI","enable",2.64738752,3.99999994e-08,
"SPI","result",2.64738832,9.6e-07,0x05
"SPI","disable",2.64739064,4.00000004e-08,
"SPI","enable",2.647416,3.99999999e-08,
"SPI","result",2.6474168,1e-06,0x15
"SPI","disable",2.64741912,3.99999999e-08,
"SPI","enable",2.64742432,4.00000004e-08,
"SPI","result",2.64742512,1e-06,0x45
"SPI","disable",2.64742744,4.00000004e-08,
"SPI","enable",2.64743264,3.99999999e-08,
"SPI","result",2.64743344,1e-06,0x45
"SPI","disable",2.64743576,3.99999999e-08,
"SPI","enable",2.64744096,4.00000004e-08,
"SPI","result",2.64744176,9.6e-07,0x75
"SPI","disable",2.64744408,3.99999994e-08,
"SPI","enable",2.64744928,4.00000004e-08,
"SPI","result",2.64745008,9.6e-07,0x06
"SPI","disable",2.64745236,4.00000004e-08,
"SPI","enable",2.64745756,4.00000004e-08,
"SPI","result",2.6474584,9.6e-07,0x06
"SPI","disable",2.64746068,3.99999999e-08,
"SPI","enable",2.64749908,4.00000004e-08,
"SPI","result",2.64749988,1e-06,0x15
"SPI","disable",2.6475022,4.00000004e-08,
"SPI","enable",2.6475074,3.99999999e-08,
"SPI","result",2.6475082,1e-06,0x46
"SPI","disable",2.64751052,4.00000004e-08,
"SPI","enable",2.64751572,4.00000004e-08,
"SPI","result",2.64751652,9.6e-07,0x46
"SPI","disable",2.64751884,3.99999994e-08,
"SPI","enable",2.647524,3.99999994e-08,
"SPI","result",2.64752484,9.6e-07,0x75
"SPI","disable",2.64752712,4.00000004e-08,
"SPI","enable",2.64753232,4.00000004e-08,
"SPI","result",2.64753312,1e-06,0x02
"SPI","disable",2.64753544,3.99999999e-08,
"SPI","enable",2.64754064,4.00000004e-08,
"SPI","result",2.64754144,1e-06,0x02
"SPI","disable",2.64754376,3.99999999e-08,
"SPI","enable",2.6475726,3.99999999e-08,
"SPI","result",2.6475734,9.6e-07,0x15
"SPI","disable",2.64757572,4.00000004e-08,
"SPI","enable",2.64758092,3.99999999e-08,
"SPI","result",2.64758172,9.6e-07,0x46
"SPI","disable",2.647584,3.99999994e-08,
"SPI","enable",2.6475892,3.99999999e-08,
"SPI","result",2.64759004,9.6e-07,0x46
"SPI","disable",2.64759232,3.99999999e-08,
"SPI","enable",2.64759752,3.99999994e-08,
"SPI","result",2.64759832,1e-06,0x75
"SPI","disable",2.64760064,4.00000004e-08,
"SPI","enable",2.64760584,3.99999999e-08,
"SPI","result",2.64760664,1e-06,0x04
"SPI","disable",2.64760896,3.99999999e-08,
"SPI","enable",2.64761416,4.00000004e-08,
"SPI","result",2.64761496,1e-06,0x04
"SPI","disable",2.64761728,4.00000004e-08,
"SPI","enable",2.64769316,3.99999999e-08,
"SPI","result",2.64769396,1e-06,0x15
"SPI","disable",2.64769628,3.99999999e-08,
"SPI","enable",2.64770148,4.00000004e-08,
"SPI","result",2.64770228,1e-06,0x48
"SPI","disable",2.6477046,4.00000004e-08,
"SPI","enable",2.6477098,3.99999999e-08,
"SPI","result",2.6477106,9.6e-07,0x48
"SPI","disable",2.64771292,3.99999999e-08,
"SPI","enable",2.64771812,4.00000004e-08,
"SPI","result",2.64771892,9.6e-07,0x75
"SPI","disable",2.64772124,3.99999994e-08,
"SPI","enable",2.6477264,3.99999999e-08,
"SPI","result",2.64772724,9.6e-07,0x02
"SPI","disable",2.64772952,4.00000004e-08,
"SPI","enable",2.64773472,4.00000004e-08,
"SPI","result",2.64773552,1e-06,0x02
"SPI","disable",2.64773784,3.99999999e-08,
"SPI","enable",2.64776668,3.99999999e-08,
"SPI","result",2.64776748,1e-06,0x15
"SPI","disable",2.6477698,3.99999999e-08,
"SPI","enable",2.647775,3.99999999e-08,
"SPI","result",2.6477758,9.6e-07,0x48
"SPI","disable",2.64777812,4.00000004e-08,
"SPI","enable",2.64778328,3.99999999e-08,
"SPI","result",2.64778412,9.6e-07,0x48
"SPI","disable",2.6477864,3.99999994e-08,
"SPI","enable",2.6477916,3.99999999e-08,
"SPI","result",2.6477924,1e-06,0x75
"SPI","disable",2.64779472,4.00000004e-08,
"SPI","enable",2.64779992,3.99999994e-08,
"SPI","result",2.64780072,1e-06,0x04
"SPI","disable",2.64780304,4.00000004e-08,
"SPI","enable",2.64780824,4.00000004e-08,
"SPI","result",2.64780904,1e-06,0x04
"SPI","disable",2.64781136,3.99999999e-08,
"SPI","enable",2.64784976,3.99999999e-08,
"SPI","result",2.64785056,9.6e-07,0x15
"SPI","disable",2.64785288,4.00000004e-08,
"SPI","enable",2.64785804,3.99999999e-08,
"SPI","result",2.64785888,9.6e-07,0x49
"SPI","disable",2.64786116,3.99999994e-08,
"SPI","enable",2.64786636,3.99999999e-08,
"SPI","result",2.64786716,1e-06,0x49
"SPI","disable",2.64786948,3.99999999e-08,
"SPI","enable",2.64787468,3.99999994e-08,
"SPI","result",2.64787548,1e-06,0x75
"SPI","disable",2.6478778,4.00000004e-08,
"SPI","enable",2.647883,3.99999999e-08,
"SPI","result",2.6478838,1e-06,0x00
"SPI","disable",2.64788612,3.99999999e-08,
"SPI","enable",2.64789132,4.00000004e-08,
"SPI","result",2.64789212,1e-06,0x00
"SPI","disable",2.64789444,4.00000004e-08,
"SPI","enable",2.6479198,3.99999999e-08,
"SPI","result",2.64792064,9.6e-07,0x15
"SPI","disable",2.64792292,3.99999999e-08,
"SPI","enable",2.64792812,4.00000004e-08,
"SPI","result",2.64792892,1e-06,0x49
"SPI","disable",2.64793124,3.99999994e-08,
"SPI","enable",2.64793644,3.99999999e-08,
"SPI","result",2.64793724,1e-06,0x49
"SPI","disable",2.64793956,3.99999999e-08,
"SPI","enable",2.64794476,3.99999994e-08,
"SPI","result",2.64794556,1e-06,0x75
"SPI","disable",2.64794788,4.00000004e-08,
"SPI","enable",2.64795308,3.99999999e-08,
"SPI","result",2.64795388,9.6e-07,0x01
"SPI","disable",2.6479562,3.99999999e-08,
"SPI","enable",2.6479614,4.00000004e-08,
"SPI","result",2.6479622,9.6e-07,0x01
"SPI","disable",2.64796448,3.99999999e-08,
"SPI","enable",2.64798988,3.99999999e-08,
"SPI","result",2.64799068,1e-06,0x15
"SPI","disable",2.647993,3.99999999e-08,
"SPI","enable",2.6479982,4.00000004e-08,
"SPI","result",2.647999,1e-06,0x49
"SPI","disable",2.64800132,3.99999994e-08,
"SPI","enable",2.64800652,3.99999999e-08,
"SPI","result",2.64800732,1e-06,0x49
"SPI","disable",2.64800964,3.99999999e-08,
"SPI","enable",2.64801484,3.99999994e-08,
"SPI","result",2.64801564,9.6e-07,0x75
"SPI","disable",2.64801796,4.00000004e-08,
"SPI","enable",2.64802312,4.00000004e-08,
"SPI","result",2.64802396,9.6e-07,0x02
"SPI","disable",2.64802624,3.99999999e-08,
"SPI","enable",2.64803144,3.99999999e-08,
"SPI","result",2.64803224,1e-06,0x02
"SPI","disable",2.64803456,3.99999999e-08,
"SPI","enable",2.64805996,3.99999999e-08,
"SPI","result",2.64806076,1e-06,0x15
"SPI","disable",2.64806308,4.00000004e-08,
"SPI","enable",2.64806828,4.00000004e-08,
"SPI","result",2.64806908,9.6e-07,0x49
"SPI","disable",2.6480714,3.99999994e-08,
"SPI","enable",2.6480766,4.00000004e-08,
"SPI","result",2.6480774,9.6e-07,0x49
"SPI","disable",2.64807972,3.99999999e-08,
"SPI","enable",2.64808488,4.00000004e-08,
"SPI","result",2.64808572,9.6e-07,0x75
"SPI","disable",2.648088,3.99999999e-08,
"SPI","enable",2.6480932,4.00000004e-08,
"SPI","result",2.648094,1e-06,0x03
"SPI","disable",2.64809632,3.99999999e-08,
"SPI","enable",2.64810152,3.99999999e-08,
"SPI","result",2.64810232,1e-06,0x03
"SPI","disable",2.64810464,3.99999999e-08,
"SPI","enable",2.64813004,3.99999999e-08,
"SPI","result",2.64813084,9.6e-07,0x15
"SPI","disable",2.64813316,4.00000004e-08,
"SPI","enable",2.64813832,3.99999999e-08,
"SPI","result",2.64813916,9.6e-07,0x49
"SPI","disable",2.64814144,4.00000004e-08,
"SPI","enable",2.64814664,3.99999994e-08,
"SPI","result",2.64814744,1e-06,0x49
"SPI","disable",2.64814976,4.00000004e-08,
"SPI","enable",2.64815496,4.00000004e-08,
"SPI","result",2.64815576,1e-06,0x75
"SPI","disable",2.64815808,3.99999999e-08,
"SPI","enable",2.64816328,4.00000004e-08,
"SPI","result",2.64816408,1e-06,0x04
"SPI","disable",2.6481664,3.99999999e-08,
"SPI","enable",2.6481716,3.99999999e-08,
"SPI","result",2.6481724,1e-06,0x04
"SPI","disable",2.64817472,3.99999999e-08,
"SPI","enable",2.64820008,3.99999999e-08,
"SPI","result",2.64820092,9.6e-07,0x15
"SPI","disable",2.6482032,3.99999994e-08,
"SPI","enable",2.6482084,3.99999999e-08,
"SPI","result",2.6482092,1e-06,0x49
"SPI","disable",2.64821152,4.00000004e-08,
"SPI","enable",2.64821672,3.99999994e-08,
"SPI","result",2.64821752,1e-06,0x49
"SPI","disable",2.64821984,4.00000004e-08,
"SPI","enable",2.64822504,4.00000004e-08,
"SPI","result",2.64822584,1e-06,0x75
"SPI","disable",2.64822816,3.99999999e-08,
"SPI","enable",2.64823336,4.00000004e-08,
"SPI","result",2.64823416,9.6e-07,0x05
"SPI","disable",2.64823648,4.00000004e-08,
"SPI","enable",2.64824168,3.99999999e-08,
"SPI","result",2.64824248,9.6e-07,0x05
"SPI","disable",2.6482448,3.99999999e-08,
"SPI","enable",2.64827016,3.99999999e-08,
"SPI","result",2.64827704,9.6e-07,0x15
"SPI","disable",2.64827936,3.99999999e-08,
"SPI","enable",2.64828456,4.00000004e-08,
"SPI","result",2.64828536,9.6e-07,0x49
"SPI","disable",2.64828768,3.99999994e-08,
"SPI","enable",2.64829284,3.99999999e-08,
"SPI","result",2.64829368,9.6e-07,0x49
"SPI","disable",2.64829596,4.00000004e-08,
"SPI","enable",2.64830116,4.00000004e-08,
"SPI","result",2.64830196,1e-06,0x75
"SPI","disable",2.64830428,3.99999994e-08,
"SPI","enable",2.64830948,4.00000004e-08,
"SPI","result",2.64831028,1e-06,0x06
"SPI","disable",2.6483126,3.99999999e-08,
"SPI","enable",2.6483178,3.99999994e-08,
"SPI","result",2.6483186,1e-06,0x06
"SPI","disable",2.64832092,3.99999999e-08,
"SPI","enable",2.64835932,4.00000004e-08,
"SPI","result",2.64836012,9.6e-07,0x15
"SPI","disable",2.6483624,3.99999999e-08,
"SPI","enable",2.6483676,3.99999999e-08,
"SPI","result",2.64836844,9.6e-07,0x4A
"SPI","disable",2.64837072,4.00000004e-08,
"SPI","enable",2.64837592,4.00000004e-08,
"SPI","result",2.64837672,1e-06,0x4A
"SPI","disable",2.64837904,4.00000004e-08,
"SPI","enable",2.64838424,4.00000004e-08,
"SPI","result",2.64838504,1e-06,0x75
"SPI","disable",2.64838736,3.99999994e-08,
"SPI","enable",2.64839256,3.99999999e-08,
"SPI","result",2.64839336,1e-06,0x02
"SPI","disable",2.64839568,3.99999999e-08,
"SPI","enable",2.64840088,3.99999999e-08,
"SPI","result",2.64840168,9.6e-07,0x02
"SPI","disable",2.648404,3.99999999e-08,
"SPI","enable",2.6484328,3.99999999e-08,
"SPI","result",2.6484336,1e-06,0x15
"SPI","disable",2.64843592,4.00000004e-08,
"SPI","enable",2.64844112,3.99999994e-08,
"SPI","result",2.64844192,1e-06,0x4A
"SPI","disable",2.64844424,4.00000004e-08,
"SPI","enable",2.64844944,4.00000004e-08,
"SPI","result",2.64845024,1e-06,0x4A
"SPI","disable",2.64845256,3.99999999e-08,
"SPI","enable",2.64845776,4.00000004e-08,
"SPI","result",2.64845856,9.6e-07,0x75
"SPI","disable",2.64846088,4.00000004e-08,
"SPI","enable",2.64846608,3.99999999e-08,
"SPI","result",2.64846688,9.6e-07,0x04
"SPI","disable",2.6484692,3.99999999e-08,
"SPI","enable",2.64847436,4.00000004e-08,
"SPI","result",2.6484752,9.6e-07,0x04
"SPI","disable",2.64847748,4.00000004e-08,
"SPI","enable",2.64851588,3.99999994e-08,
"SPI","result",2.64851668,1e-06,0x15
"SPI","disable",2.648519,4.00000004e-08,
"SPI","enable",2.6485242,3.99999999e-08,
"SPI","result",2.648525,1e-06,0x4B
"SPI","disable",2.64852732,4.00000004e-08,
"SPI","enable",2.64853252,4.00000004e-08,
"SPI","result",2.64853332,9.6e-07,0x4B
"SPI","disable",2.64853564,3.99999999e-08,
"SPI","enable",2.64854084,3.99999999e-08,
"SPI","result",2.64854164,9.6e-07,0x75
"SPI","disable",2.64854396,3.99999999e-08,
"SPI","enable",2.64854912,3.99999999e-08,
"SPI","result",2.64854996,9.6e-07,0x00
"SPI","disable",2.64855224,3.99999999e-08,
"SPI","enable",2.64855744,3.99999999e-08,
"SPI","result",2.64855824,1e-06,0x00
"SPI","disable",2.64856056,4.00000004e-08,
"SPI","enable",2.64858596,3.99999994e-08,
"SPI","result",2.64858676,1e-06,0x15
"SPI","disable",2.64858908,4.00000004e-08,
"SPI","enable",2.64859428,3.99999999e-08,
"SPI","result",2.64859508,9.6e-07,0x4B
"SPI","disable",2.6485974,4.00000004e-08,
"SPI","enable",2.64860256,3.99999994e-08,
"SPI","result",2.6486034,9.6e-07,0x4B
"SPI","disable",2.64860568,3.99999999e-08,
"SPI","enable",2.64861088,3.99999999e-08,
"SPI","result",2.64861168,1e-06,0x75
"SPI","disable",2.648614,4.00000004e-08,
"SPI","enable",2.6486192,3.99999999e-08,
"SPI","result",2.64862,1e-06,0x01
"SPI","disable",2.64862232,3.99999999e-08,
"SPI","enable",2.64862752,3.99999999e-08,
"SPI","result",2.64862832,1e-06,0x01
"SPI","disable",2.64863064,4.00000004e-08,
"SPI","enable",2.64865604,3.99999994e-08,
"SPI","result",2.64865684,9.6e-07,0x15
"SPI","disable",2.64865916,4.00000004e-08,
"SPI","enable",2.64866432,4.00000004e-08,
"SPI","result",2.64866516,9.6e-07,0x4B
"SPI","disable",2.64866744,3.99999999e-08,
"SPI","enable",2.64867264,3.99999994e-08,
"SPI","result",2.64867344,1e-06,0x4B
"SPI","disable",2.64867576,3.99999999e-08,
"SPI","enable",2.64868096,3.99999999e-08,
"SPI","result",2.64868176,1e-06,0x75
"SPI","disable",2.64868408,3.99999999e-08,
"SPI","enable",2.64868928,3.99999999e-08,
"SPI","result",2.64869008,1e-06,0x02
"SPI","disable",2.6486924,4.00000004e-08,
"SPI","enable",2.6486976,3.99999994e-08,
"SPI","result",2.6486984,9.6e-07,0x02
"SPI","disable",2.64870072,4.00000004e-08,
"SPI","enable",2.64872608,4.00000004e-08,
"SPI","result",2.64872688,1e-06,0x15
"SPI","disable",2.6487292,3.99999999e-08,
"SPI","enable",2.6487344,4.00000004e-08,
"SPI","result",2.6487352,1e-06,0x4B
"SPI","disable",2.64873752,3.99999999e-08,
"SPI","enable",2.64874272,3.99999999e-08,
"SPI","result",2.64874352,1e-06,0x4B
"SPI","disable",2.64874584,3.99999999e-08,
"SPI","enable",2.64875104,3.99999999e-08,
"SPI","result",2.64875184,1e-06,0x75
"SPI","disable",2.64875416,3.99999994e-08,
"SPI","enable",2.64875936,3.99999999e-08,
"SPI","result",2.64876016,9.6e-07,0x03
"SPI","disable",2.64876248,4.00000004e-08,
"SPI","enable",2.64876764,4.00000004e-08,
"SPI","result",2.64876848,9.6e-07,0x03
"SPI","disable",2.64877076,3.99999994e-08,
"SPI","enable",2.64879616,4.00000004e-08,
"SPI","result",2.64879696,1e-06,0x15
"SPI","disable",2.64879928,3.99999999e-08,
"SPI","enable",2.64880448,4.00000004e-08,
"SPI","result",2.64880528,1e-06,0x4B
"SPI","disable",2.6488076,3.99999999e-08,
"SPI","enable",2.6488128,3.99999999e-08,
"SPI","result",2.6488136,1e-06,0x4B
"SPI","disable",2.64881592,3.99999999e-08,
"SPI","enable",2.64882112,3.99999999e-08,
"SPI","result",2.64882192,9.6e-07,0x75
"SPI","disable",2.64882424,3.99999994e-08,
"SPI","enable",2.6488294,3.99999999e-08,
"SPI","result",2.64883024,9.6e-07,0x04
"SPI","disable",2.64883252,3.99999999e-08,
"SPI","enable",2.64883772,4.00000004e-08,
"SPI","result",2.64883852,1e-06,0x04
"SPI","disable",2.64884084,3.99999994e-08,
"SPI","enable",2.64886624,4.00000004e-08,
"SPI","result",2.64886704,1e-06,0x15
"SPI","disable",2.64886936,3.99999999e-08,
"SPI","enable",2.64887456,4.00000004e-08,
"SPI","result",2.64887536,9.6e-07,0x4B
"SPI","disable",2.64887768,4.00000004e-08,
"SPI","enable",2.64888284,3.99999999e-08,
"SPI","result",2.64888368,9.6e-07,0x4B
"SPI","disable",2.64888596,3.99999999e-08,
"SPI","enable",2.64889116,4.00000004e-08,
"SPI","result",2.648892,9.6e-07,0x75
"SPI","disable",2.64889428,4.00000004e-08,
"SPI","enable",2.64889948,3.99999999e-08,
"SPI","result",2.64890028,1e-06,0x05
"SPI","disable",2.6489026,4.00000004e-08,
"SPI","enable",2.6489078,4.00000004e-08,
"SPI","result",2.6489086,1e-06,0x05
"SPI","disable",2.64891092,3.99999994e-08,
"SPI","enable",2.64893632,4.00000004e-08,
"SPI","result",2.64893712,9.60000001e-07,0x15
"SPI","disable",2.64893944,3.99999999e-08,
"SPI","enable",2.6489446,3.99999994e-08,
"SPI","result",2.64894544,9.6e-07,0x4B
"SPI","disable",2.64894772,4.00000004e-08,
"SPI","enable",2.64895292,3.99999999e-08,
"SPI","result",2.64895372,1e-06,0x4B
"SPI","disable",2.64895604,3.99999999e-08,
"SPI","enable",2.64896124,3.99999999e-08,
"SPI","result",2.64896204,1e-06,0x75
"SPI","disable",2.64896436,4.00000004e-08,
"SPI","enable",2.64896956,3.99999999e-08,
"SPI","result",2.64897036,1e-06,0x06
"SPI","disable",2.64897268,4.00000004e-08,
"SPI","enable",2.64897788,4.00000004e-08,
"SPI","result",2.64897868,1e-06,0x06
"SPI","disable",2.648981,3.99999994e-08,
"SPI","enable",2.64901936,3.99999994e-08,
"SPI","result",2.6490202,9.6e-07,0x15
"SPI","disable",2.64902248,3.99999999e-08,
"SPI","enable",2.64902768,3.99999999e-08,
"SPI","result",2.64902848,1e-06,0x4C
"SPI","disable",2.6490308,3.99999999e-08,
"SPI","enable",2.649036,3.99999999e-08,
"SPI","result",2.6490368,1e-06,0x4C
"SPI","disable",2.64903912,4.00000004e-08,
"SPI","enable",2.64904432,3.99999999e-08,
"SPI","result",2.64904512,1e-06,0x75
"SPI","disable",2.64904744,4.00000004e-08,
"SPI","enable",2.64905264,4.00000004e-08,
"SPI","result",2.64905344,9.6e-07,0x02
"SPI","disable",2.64905576,3.99999999e-08,
"SPI","enable",2.64906096,4.00000004e-08,
"SPI","result",2.64906176,9.6e-07,0x02
"SPI","disable",2.64906408,3.99999999e-08,
"SPI","enable",2.64909288,3.99999999e-08,
"SPI","result",2.64909368,1e-06,0x15
"SPI","disable",2.649096,3.99999999e-08,
"SPI","enable",2.6491012,3.99999999e-08,
"SPI","result",2.649102,1e-06,0x4C
"SPI","disable",2.64910432,3.99999994e-08,
"SPI","enable",2.64910952,3.99999999e-08,
"SPI","result",2.64911032,9.6e-07,0x4C
"SPI","disable",2.64911264,4.00000004e-08,
"SPI","enable",2.64911784,3.99999994e-08,
"SPI","result",2.64911864,9.6e-07,0x75
"SPI","disable",2.64912096,4.00000004e-08,
"SPI","enable",2.64912612,3.99999999e-08,
"SPI","result",2.64912696,9.60000001e-07,0x04
"SPI","disable",2.64912924,3.99999999e-08,
"SPI","enable",2.64913444,3.99999994e-08,
"SPI","result",2.64913524,1e-06,0x04
"SPI","disable",2.64913756,4.00000004e-08,
"SPI","enable",2.64921344,3.99999999e-08,
"SPI","result",2.64921428,9.6e-07,0x15
"SPI","disable",2.64921656,3.99999994e-08,
"SPI","enable",2.64922176,3.99999999e-08,
"SPI","result",2.64922256,1e-06,0x4E
"SPI","disable",2.64922488,4.00000004e-08,
"SPI","enable",2.64923008,3.99999994e-08,
"SPI","result",2.64923088,1e-06,0x4E
"SPI","disable",2.6492332,4.00000004e-08,
"SPI","enable",2.6492384,3.99999999e-08,
"SPI","result",2.6492392,1e-06,0x75
"SPI","disable",2.64924152,3.99999999e-08,
"SPI","enable",2.64924672,4.00000004e-08,
"SPI","result",2.64924752,1e-06,0x02
"SPI","disable",2.64924984,4.00000004e-08,
"SPI","enable",2.64925504,3.99999999e-08,
"SPI","result",2.64925584,9.6e-07,0x02
"SPI","disable",2.64925816,3.99999999e-08,
"SPI","enable",2.64928696,4.00000004e-08,
"SPI","result",2.64928776,1e-06,0x15
"SPI","disable",2.64929008,3.99999994e-08,
"SPI","enable",2.64930136,4.00000004e-08,
"SPI","result",2.64930216,9.6e-07,0x4E
"SPI","disable",2.64930448,3.99999994e-08,
"SPI","enable",2.64930964,3.99999999e-08,
"SPI","result",2.64931048,9.6e-07,0x4E
"SPI","disable",2.64931276,4.00000004e-08,
"SPI","enable",2.64931796,4.00000004e-08,
"SPI","result",2.64931876,1e-06,0x75
"SPI","disable",2.64932108,3.99999999e-08,
"SPI","enable",2.64932628,4.00000004e-08,
"SPI","result",2.64932708,1e-06,0x04
"SPI","disable",2.6493294,3.99999999e-08,
"SPI","enable",2.6493346,3.99999999e-08,
"SPI","result",2.6493354,1e-06,0x04
"SPI","disable",2.64933772,3.99999999e-08,
"SPI","enable",2.64937612,4.00000004e-08,
"SPI","result",2.64937692,9.6e-07,0x15
"SPI","disable",2.64937924,3.99999994e-08,
"SPI","enable",2.6493844,3.99999994e-08,
"SPI","result",2.64938524,9.6e-07,0x4F
"SPI","disable",2.64938752,4.00000004e-08,
"SPI","enable",2.64939272,4.00000004e-08,
"SPI","result",2.64939352,1e-06,0x4F
"SPI","disable",2.64939584,3.99999999e-08,
"SPI","enable",2.64940104,4.00000004e-08,
"SPI","result",2.64940184,1e-06,0x75
"SPI","disable",2.64940416,4.00000004e-08,
"SPI","enable",2.64940936,3.99999999e-08,
"SPI","result",2.64941016,1e-06,0x00
"SPI","disable",2.64941248,3.99999999e-08,
"SPI","enable",2.64941768,4.00000004e-08,
"SPI","result",2.64941848,1e-06,0x00
"SPI","disable",2.6494208,3.99999994e-08,
"SPI","enable",2.64944616,3.99999999e-08,
"SPI","result",2.649447,9.6e-07,0x15
"SPI","disable",2.64944928,4.00000004e-08,
"SPI","enable",2.64945448,3.99999994e-08,
"SPI","result",2.64945528,1e-06,0x4F
"SPI","disable",2.6494576,4.00000004e-08,
"SPI","enable",2.6494628,4.00000004e-08,
"SPI","result",2.6494636,1e-06,0x4F
"SPI","disable",2.64946592,3.99999999e-08,
"SPI","enable",2.64947112,4.00000004e-08,
"SPI","result",2.64947192,1e-06,0x75
"SPI","disable",2.64947424,4.00000004e-08,
"SPI","enable",2.64947944,3.99999999e-08,
"SPI","result",2.64948024,9.6e-07,0x01
"SPI","disable",2.64948256,3.99999999e-08,
"SPI","enable",2.64948776,4.00000004e-08,
"SPI","result",2.64948856,9.6e-07,0x01
"SPI","disable",2.64949084,4.00000004e-08,
"SPI","enable",2.64951624,3.99999999e-08,
"SPI","result",2.64951704,1e-06,0x15
"SPI","disable",2.64951936,3.99999999e-08,
"SPI","enable",2.64952456,3.99999994e-08,
"SPI","result",2.64952536,1e-06,0x4F
"SPI","disable",2.64952768,4.00000004e-08,
"SPI","enable",2.64953288,3.99999999e-08,
"SPI","result",2.64953368,1e-06,0x4F
"SPI","disable",2.649536,3.99999999e-08,
"SPI","enable",2.6495412,4.00000004e-08,
"SPI","result",2.649542,9.6e-07,0x75
"SPI","disable",2.64954432,4.00000004e-08,
"SPI","enable",2.64954948,3.99999999e-08,
"SPI","result",2.64955032,9.6e-07,0x02
"SPI","disable",2.6495526,3.99999999e-08,
"SPI","enable",2.6495578,3.99999999e-08,
"SPI","result",2.6495586,1e-06,0x02
"SPI","disable",2.64956092,4.00000004e-08,
"SPI","enable",2.64958632,3.99999999e-08,
"SPI","result",2.64958712,1e-06,0x15
