name,type,start_time,duration,"mosi"
"SPI","enable",2.204847,3.99999999e-08,
"SPI","disable",2.20485488,3.99999999e-08,
"SPI","enable",2.60495392,3.99999999e-08,
"SPI","result",2.60495472,1e-06,0xAE
"SPI","disable",2.60495704,4.00000004e-08,
"SPI","enable",2.60496224,4.00000004e-08,
"SPI","result",2.60496304,9.6e-07,0xA0
"SPI","disable",2.60496536,3.99999999e-08,
"SPI","enable",2.60497056,4.00000004e-08,
"SPI","result",2.60497136,9.6e-07,0x72
"SPI","disable",2.60497368,3.99999999e-08,
"SPI","enable",2.60497884,4.00000004e-08,
"SPI","result",2.60497968,9.6e-07,0xA1
"SPI","disable",2.60498196,3.99999999e-08,
"SPI","enable",2.60498716,4.00000004e-08,
"SPI","result",2.60498796,1e-06,0x00
"SPI","disable",2.60499028,4.00000004e-08,
"SPI","enable",2.60499548,3.99999999e-08,
"SPI","result",2.60499628,1e-06,0xA2
"SPI","disable",2.6049986,3.99999999e-08,
"SPI","enable",2.6050038,4.00000004e-08,
"SPI","result",2.6050046,1e-06,0x00
"SPI","disable",2.60500692,3.99999994e-08,
"SPI","enable",2.60501212,3.99999999e-08,
"SPI","result",2.60501292,9.6e-07,0xA4
"SPI","disable",2.60501524,3.99999999e-08,
"SPI","enable",2.60502044,3.99999994e-08,
"SPI","result",2.60502124,9.6e-07,0xA8
"SPI","disable",2.60502356,4.00000004e-08,
"SPI","enable",2.60502872,4.00000004e-08,
"SPI","result",2.60502956,9.6e-07,0x3F
"SPI","disable",2.60503184,3.99999999e-08,
"SPI","enable",2.60503704,3.99999994e-08,
"SPI","result",2.60503784,1e-06,0xAD
"SPI","disable",2.60504016,3.99999999e-08,
"SPI","enable",2.60504536,3.99999999e-08,
"SPI","result",2.60504616,9.99999999e-07,0x8E
"SPI","disable",2.60504848,3.99999994e-08,
"SPI","enable",2.60505368,3.99999999e-08,
"SPI","result",2.60505448,1e-06,0xB0
"SPI","disable",2.6050568,4.00000004e-08,
"SPI","enable",2.605062,3.99999994e-08,
"SPI","result",2.6050628,9.6e-07,0x0B
"SPI","disable",2.60506512,4.00000004e-08,
"SPI","enable",2.60507032,4.00000004e-08,
"SPI","result",2.60507112,9.6e-07,0xB1
"SPI","disable",2.60507344,3.99999999e-08,
"SPI","enable",2.6050786,3.99999994e-08,
"SPI","result",2.60507944,9.6e-07,0x31
"SPI","disable",2.60508172,4.00000004e-08,
"SPI","enable",2.60508692,3.99999999e-08,
"SPI","result",2.60508772,9.99999999e-07,0xB3
"SPI","disable",2.60509004,3.99999999e-08,
"SPI","enable",2.60509524,4.00000004e-08,
"SPI","result",2.60509604,1e-06,0xF0
"SPI","disable",2.60509836,4.00000004e-08,
"SPI","enable",2.60510356,3.99999999e-08,
"SPI","result",2.60510436,1e-06,0x8A
"SPI","disable",2.60510668,4.00000004e-08,
"SPI","enable",2.60511188,4.00000004e-08,
"SPI","result",2.60511268,1e-06,0x64
"SPI","disable",2.605115,3.99999994e-08,
"SPI","enable",2.6051202,4.00000004e-08,
"SPI","result",2.605121,9.6e-07,0x8B
"SPI","disable",2.60512332,3.99999999e-08,
"SPI","enable",2.60512848,4.00000004e-08,
"SPI","result",2.60512932,9.6e-07,0x78
"SPI","disable",2.6051316,3.99999999e-08,
"SPI","enable",2.6051368,4.00000004e-08,
"SPI","result",2.6051376,1e-06,0x8C
"SPI","disable",2.60513992,3.99999999e-08,
"SPI","enable",2.60514512,3.99999999e-08,
"SPI","result",2.60514592,1e-06,0x64
"SPI","disable",2.60514824,3.99999999e-08,
"SPI","enable",2.60515344,3.99999999e-08,
"SPI","result",2.60515424,1e-06,0xBB
"SPI","disable",2.60515656,3.99999994e-08,
"SPI","enable",2.60516176,3.99999999e-08,
"SPI","result",2.60516256,1e-06,0x3A
"SPI","disable",2.60516488,4.00000004e-08,
"SPI","enable",2.60517008,3.99999994e-08,
"SPI","result",2.60517088,9.6e-07,0xBE
"SPI","disable",2.6051732,4.00000004e-08,
"SPI","enable",2.60517836,3.99999999e-08,
"SPI","result",2.6051792,9.60000001e-07,0x3E
"SPI","disable",2.60518148,3.99999999e-08,
"SPI","enable",2.60518668,3.99999994e-08,
"SPI","result",2.60518748,1e-06,0x87
"SPI","disable",2.6051898,3.99999999e-08,
"SPI","enable",2.605195,3.99999999e-08,
"SPI","result",2.6051958,1e-06,0x06
"SPI","disable",2.60519812,3.99999999e-08,
"SPI","enable",2.60520332,3.99999999e-08,
"SPI","result",2.60520412,1e-06,0x81
"SPI","disable",2.60520644,4.00000004e-08,
"SPI","enable",2.60521164,3.99999999e-08,
"SPI","result",2.60521244,1e-06,0x91
"SPI","disable",2.60521476,4.00000004e-08,
"SPI","enable",2.60521996,4.00000004e-08,
"SPI","result",2.60522076,9.6e-07,0x82
"SPI","disable",2.60522308,3.99999994e-08,
"SPI","enable",2.60522824,3.99999994e-08,
"SPI","result",2.60522908,9.6e-07,0x50
"SPI","disable",2.60523136,4.00000004e-08,
"SPI","enable",2.60523656,4.00000004e-08,
"SPI","result",2.60523736,1e-06,0x83
"SPI","disable",2.60523968,3.99999999e-08,
"SPI","enable",2.60524488,4.00000004e-08,
"SPI","result",2.60524568,1e-06,0x7D
"SPI","disable",2.605248,4.00000004e-08,
"SPI","enable",2.6052532,3.99999999e-08,
"SPI","result",2.605254,1e-06,0xAF
"SPI","disable",2.60525632,3.99999999e-08,
"SPI","enable",2.60533852,3.99999994e-08,
"SPI","result",2.60533932,1e-06,0x15
"SPI","disable",2.60534164,4.00000004e-08,
"SPI","enable",2.60534684,3.99999999e-08,
"SPI","result",2.60534764,9.99999999e-07,0x00
"SPI","disable",2.60534996,3.99999999e-08,
"SPI","enable",2.60535516,4.00000004e-08,
"SPI","result",2.60535596,9.6e-07,0x5F
"SPI","disable",2.60535828,4.00000004e-08,
"SPI","enable",2.60536348,3.99999999e-08,
"SPI","result",2.60536428,9.6e-07,0x75
"SPI","disable",2.6053666,4.00000004e-08,
"SPI","enable",2.60537176,3.99999999e-08,
"SPI","result",2.6053726,9.6e-07,0x00
"SPI","disable",2.60537488,4.00000004e-08,
"SPI","enable",2.60538008,3.99999994e-08,
"SPI","result",2.60538088,1e-06,0x3F
"SPI","disable",2.6053832,4.00000004e-08,
"SPI","enable",2.62941816,3.99999999e-08,
"SPI","result",2.62941896,1e-06,0x15
"SPI","disable",2.62942128,3.99999999e-08,
"SPI","enable",2.62942648,4.00000004e-08,
"SPI","result",2.62942728,1e-06,0x00
"SPI","disable",2.6294296,4.00000004e-08,
"SPI","enable",2.6294348,3.99999999e-08,
"SPI","result",2.6294356,1e-06,0x00
"SPI","disable",2.62943792,4.00000004e-08,
"SPI","enable",2.62944312,4.00000004e-08,
"SPI","result",2.62944392,9.6e-07,0x75
"SPI","disable",2.62944624,3.99999994e-08,
"SPI","enable",2.62945144,4.00000004e-08,
"SPI","result",2.62945224,9.6e-07,0x02
"SPI","disable",2.62945456,3.99999999e-08,
"SPI","enable",2.62945972,4.00000004e-08,
"SPI","result",2.62946056,9.6e-07,0x02
"SPI","disable",2.62946284,3.99999999e-08,
"SPI","enable",2.62949168,3.99999999e-08,
"SPI","result",2.62949248,9.99999999e-07,0x15
"SPI","disable",2.6294948,3.99999999e-08,
"SPI","enable",2.6295,3.99999999e-08,
"SPI","result",2.6295008,9.6e-07,0x00
"SPI","disable",2.62950312,4.00000004e-08,
"SPI","enable",2.62950832,3.99999999e-08,
"SPI","result",2.62950912,9.6e-07,0x00
"SPI","disable",2.62951144,4.00000004e-08,
"SPI","enable",2.6295166,3.99999999e-08,
"SPI","result",2.62951744,9.6e-07,0x75
"SPI","disable",2.62951972,4.00000004e-08,
"SPI","enable",2.62952492,3.99999994e-08,
"SPI","result",2.62952572,1e-06,0x04
"SPI","disable",2.62952804,4.00000004e-08,
"SPI","enable",2.62953324,3.99999999e-08,
"SPI","result",2.62953404,1e-06,0x04
"SPI","disable",2.62953636,3.99999999e-08,
"SPI","enable",2.62957476,3.99999999e-08,
"SPI","result",2.62957556,9.6e-07,0x15
"SPI","disable",2.62957788,4.00000004e-08,
"SPI","enable",2.62958308,3.99999994e-08,
"SPI","result",2.62958388,9.6e-07,0x01
"SPI","disable",2.6295862,4.00000004e-08,
"SPI","enable",2.62959136,3.99999999e-08,
"SPI","result",2.6295922,9.6e-07,0x01
"SPI","disable",2.62959448,3.99999999e-08,
"SPI","enable",2.62959968,3.99999994e-08,
"SPI","result",2.62960048,1e-06,0x75
"SPI","disable",2.6296028,4.00000004e-08,
"SPI","enable",2.629608,3.99999999e-08,
"SPI","result",2.6296088,1e-06,0x00
"SPI","disable",2.62961112,3.99999999e-08,
"SPI","enable",2.62961632,4.00000004e-08,
"SPI","result",2.62961712,1e-06,0x00
"SPI","disable",2.62961944,4.00000004e-08,
"SPI","enable",2.6296448,3.99999999e-08,
"SPI","result",2.62964564,9.6e-07,0x15
"SPI","disable",2.62964792,3.99999999e-08,
"SPI","enable",2.62965312,4.00000004e-08,
"SPI","result",2.62965392,1e-06,0x01
"SPI","disable",2.62965624,3.99999994e-08,
"SPI","enable",2.62966144,4.00000004e-08,
"SPI","result",2.62966224,1e-06,0x01
"SPI","disable",2.62966456,3.99999999e-08,
"SPI","enable",2.62966976,3.99999994e-08,
"SPI","result",2.62967056,1e-06,0x75
"SPI","disable",2.62967288,3.99999999e-08,
"SPI","enable",2.62967808,3.99999999e-08,
"SPI","result",2.62967888,9.99999999e-07,0x01
"SPI","disable",2.6296812,3.99999999e-08,
"SPI","enable",2.6296864,3.99999999e-08,
"SPI","result",2.6296872,9.6e-07,0x01
"SPI","disable",2.62968952,4.00000004e-08,
"SPI","enable",2.62971488,3.99999999e-08,
"SPI","result",2.62971568,1e-06,0x15
"SPI","disable",2.629718,4.00000004e-08,
"SPI","enable",2.6297232,4.00000004e-08,
"SPI","result",2.629724,1e-06,0x01
"SPI","disable",2.62972632,3.99999994e-08,
"SPI","enable",2.62973152,4.00000004e-08,
"SPI","result",2.62973232,1e-06,0x01
"SPI","disable",2.62973464,3.99999999e-08,
"SPI","enable",2.62973984,3.99999994e-08,
"SPI","result",2.62974064,9.6e-07,0x75
"SPI","disable",2.62974296,3.99999999e-08,
"SPI","enable",2.62974816,3.99999999e-08,
"SPI","result",2.62974896,9.6e-07,0x02
"SPI","disable",2.62975128,3.99999999e-08,
"SPI","enable",2.62975644,3.99999999e-08,
"SPI","result",2.62975728,9.6e-07,0x02
"SPI","disable",2.62975956,3.99999999e-08,
"SPI","enable",2.62978496,3.99999999e-08,
"SPI","result",2.62978576,1e-06,0x15
"SPI","disable",2.62978808,4.00000004e-08,
"SPI","enable",2.62979328,4.00000004e-08,
"SPI","result",2.62979408,1e-06,0x01
"SPI","disable",2.6297964,3.99999994e-08,
"SPI","enable",2.6298016,4.00000004e-08,
"SPI","result",2.6298024,9.6e-07,0x01
"SPI","disable",2.62980472,3.99999999e-08,
"SPI","enable",2.62980988,4.00000004e-08,
"SPI","result",2.62981072,9.6e-07,0x75
"SPI","disable",2.629813,3.99999999e-08,
"SPI","enable",2.6298182,4.00000004e-08,
"SPI","result",2.629819,1e-06,0x03
"SPI","disable",2.62982132,4.00000004e-08,
"SPI","enable",2.62982652,3.99999999e-08,
"SPI","result",2.62982732,1e-06,0x03
"SPI","disable",2.62982964,3.99999999e-08,
"SPI","enable",2.62986108,3.99999999e-08,
"SPI","result",2.62986188,1e-06,0x15
"SPI","disable",2.6298642,3.99999999e-08,
"SPI","enable",2.6298694,3.99999999e-08,
"SPI","result",2.6298702,1e-06,0x01
"SPI","disable",2.62987252,3.99999994e-08,
"SPI","enable",2.62987772,3.99999999e-08,
"SPI","result",2.62987852,1e-06,0x01
"SPI","disable",2.62988084,3.99999999e-08,
"SPI","enable",2.62988604,3.99999994e-08,
"SPI","result",2.62988684,1e-06,0x75
"SPI","disable",2.62988916,4.00000004e-08,
"SPI","enable",2.62989436,3.99999999e-08,
"SPI","result",2.62989516,9.60000001e-07,0x04
"SPI","disable",2.62989748,3.99999999e-08,
"SPI","enable",2.62990268,4.00000004e-08,
"SPI","result",2.62990348,9.6e-07,0x04
"SPI","disable",2.62990576,3.99999999e-08,
"SPI","enable",2.62993116,3.99999999e-08,
"SPI","result",2.62993196,1e-06,0x15
"SPI","disable",2.62993428,3.99999999e-08,
"SPI","enable",2.62993948,4.00000004e-08,
"SPI","result",2.62994028,1e-06,0x01
"SPI","disable",2.6299426,3.99999994e-08,
"SPI","enable",2.6299478,3.99999999e-08,
"SPI","result",2.6299486,9.6e-07,0x01
"SPI","disable",2.62995092,3.99999999e-08,
"SPI","enable",2.62995612,3.99999994e-08,
"SPI","result",2.62995692,9.6e-07,0x75
"SPI","disable",2.62995924,4.00000004e-08,
"SPI","enable",2.6299644,4.00000004e-08,
"SPI","result",2.62996524,9.6e-07,0x05
"SPI","disable",2.62996752,3.99999999e-08,
"SPI","enable",2.62997272,3.99999994e-08,
"SPI","result",2.62997352,1e-06,0x05
"SPI","disable",2.62997584,3.99999999e-08,
"SPI","enable",2.63000124,3.99999999e-08,
"SPI","result",2.63000204,1e-06,0x15
"SPI","disable",2.63000436,3.99999999e-08,
"SPI","enable",2.63000956,4.00000004e-08,
"SPI","result",2.63001036,9.6e-07,0x01
"SPI","disable",2.63001268,3.99999994e-08,
"SPI","enable",2.63001788,3.99999999e-08,
"SPI","result",2.63001868,9.6e-07,0x01
"SPI","disable",2.63002096,4.00000004e-08,
"SPI","enable",2.63002616,4.00000004e-08,
"SPI","result",2.630027,9.6e-07,0x75
"SPI","disable",2.63002928,3.99999994e-08,
"SPI","enable",2.63003448,4.00000004e-08,
"SPI","result",2.63003528,1e-06,0x06
"SPI","disable",2.6300376,3.99999999e-08,
"SPI","enable",2.6300428,3.99999999e-08,
"SPI","result",2.6300436,1e-06,0x06
"SPI","disable",2.63004592,3.99999999e-08,
"SPI","enable",2.63008432,4.00000004e-08,
"SPI","result",2.63008512,9.6e-07,0x15
"SPI","disable",2.63008744,3.99999994e-08,
"SPI","enable",2.6300926,3.99999999e-08,
"SPI","result",2.63009344,9.6e-07,0x02
"SPI","disable",2.63009572,4.00000004e-08,
"SPI","enable",2.63010092,4.00000004e-08,
"SPI","result",2.63010172,1e-06,0x02
"SPI","disable",2.63010404,3.99999999e-08,
"SPI","enable",2.63010924,4.00000004e-08,
"SPI","result",2.63011004,1e-06,0x75
"SPI","disable",2.63011236,3.99999999e-08,
"SPI","enable",2.63011756,3.99999999e-08,
"SPI","result",2.63011836,1e-06,0x02
"SPI","disable",2.63012068,3.99999999e-08,
"SPI","enable",2.63012588,3.99999999e-08,
"SPI","result",2.63012668,1e-06,0x02
"SPI","disable",2.630129,3.99999994e-08,
"SPI","enable",2.6301578,3.99999999e-08,
"SPI","result",2.63015864,9.6e-07,0x15
"SPI","disable",2.63016092,4.00000004e-08,
"SPI","enable",2.63016612,3.99999994e-08,
"SPI","result",2.63016692,1e-06,0x02
"SPI","disable",2.63016924,4.00000004e-08,
"SPI","enable",2.63017444,4.00000004e-08,
"SPI","result",2.63017524,1e-06,0x02
"SPI","disable",2.63017756,3.99999999e-08,
"SPI","enable",2.63018276,4.00000004e-08,
"SPI","result",2.63018356,1e-06,0x75
"SPI","disable",2.63018588,4.00000004e-08,
"SPI","enable",2.63019108,3.99999999e-08,
"SPI","result",2.63019188,9.6e-07,0x04
"SPI","disable",2.6301942,3.99999999e-08,
"SPI","enable",2.6301994,4.00000004e-08,
"SPI","result",2.6302002,9.6e-07,0x04
"SPI","disable",2.63020252,3.99999994e-08,
"SPI","enable",2.63024088,3.99999994e-08,
"SPI","result",2.63024168,1e-06,0x15
"SPI","disable",2.630244,4.00000004e-08,
"SPI","enable",2.6302492,3.99999999e-08,
"SPI","result",2.63025,1e-06,0x03
"SPI","disable",2.63025232,3.99999999e-08,
"SPI","enable",2.63025752,4.00000004e-08,
"SPI","result",2.63025832,1e-06,0x03
"SPI","disable",2.63026064,4.00000004e-08,
"SPI","enable",2.63026584,3.99999999e-08,
"SPI","result",2.63026664,9.6e-07,0x75
"SPI","disable",2.63026896,4.00000004e-08,
"SPI","enable",2.63027412,3.99999999e-08,
"SPI","result",2.63027496,9.6e-07,0x00
"SPI","disable",2.63027724,4.00000004e-08,
"SPI","enable",2.63028244,3.99999994e-08,
"SPI","result",2.63028324,1e-06,0x00
"SPI","disable",2.63028556,4.00000004e-08,
"SPI","enable",2.63031096,3.99999994e-08,
"SPI","result",2.63031176,1e-06,0x15
"SPI","disable",2.63031408,3.99999999e-08,
"SPI","enable",2.63031928,3.99999999e-08,
"SPI","result",2.63032008,9.6e-07,0x03
"SPI","disable",2.6303224,3.99999999e-08,
"SPI","enable",2.6303276,3.99999999e-08,
"SPI","result",2.6303284,9.6e-07,0x03
"SPI","disable",2.63033072,4.00000004e-08,
"SPI","enable",2.63033588,3.99999999e-08,
"SPI","result",2.63033672,9.6e-07,0x75
"SPI","disable",2.630339,3.99999994e-08,
"SPI","enable",2.6303442,3.99999999e-08,
"SPI","result",2.630345,1e-06,0x01
"SPI","disable",2.63034732,4.00000004e-08,
"SPI","enable",2.63035252,3.99999994e-08,
"SPI","result",2.63035332,1e-06,0x01
"SPI","disable",2.63035564,4.00000004e-08,
"SPI","enable",2.63038104,3.99999994e-08,
"SPI","result",2.63038184,9.6e-07,0x15
"SPI","disable",2.63038416,3.99999999e-08,
"SPI","enable",2.63038932,4.00000004e-08,
"SPI","result",2.63039016,9.6e-07,0x03
"SPI","disable",2.63039244,3.99999999e-08,
"SPI","enable",2.63039764,3.99999999e-08,
"SPI","result",2.63039848,9.6e-07,0x03
"SPI","disable",2.63040076,3.99999999e-08,
"SPI","enable",2.63040596,3.99999999e-08,
"SPI","result",2.63040676,1e-06,0x75
"SPI","disable",2.63040908,3.99999994e-08,
"SPI","enable",2.63041428,3.99999999e-08,
"SPI","result",2.63041508,1e-06,0x02
"SPI","disable",2.6304174,4.00000004e-08,
"SPI","enable",2.6304226,3.99999994e-08,
"SPI","result",2.6304234,1e-06,0x02
"SPI","disable",2.63042572,4.00000004e-08,
"SPI","enable",2.63045108,4.00000004e-08,
"SPI","result",2.63045192,9.6e-07,0x15
"SPI","disable",2.6304542,3.99999999e-08,
"SPI","enable",2.6304594,4.00000004e-08,
"SPI","result",2.6304602,1e-06,0x03
"SPI","disable",2.63046252,3.99999999e-08,
"SPI","enable",2.63046772,3.99999999e-08,
"SPI","result",2.63046852,1e-06,0x03
"SPI","disable",2.63047084,3.99999999e-08,
"SPI","enable",2.63047604,4.00000004e-08,
"SPI","result",2.63047684,1e-06,0x75
"SPI","disable",2.63047916,3.99999994e-08,
"SPI","enable",2.63048436,3.99999999e-08,
"SPI","result",2.63048516,1e-06,0x03
"SPI","disable",2.63048748,3.99999999e-08,
"SPI","enable",2.63049268,3.99999994e-08,
"SPI","result",2.63049348,9.6e-07,0x03
"SPI","disable",2.6304958,4.00000004e-08,
"SPI","enable",2.63052116,4.00000004e-08,
"SPI","result",2.63052196,1e-06,0x15
"SPI","disable",2.63052428,3.99999999e-08,
"SPI","enable",2.63052948,4.00000004e-08,
"SPI","result",2.63053028,1e-06,0x03
"SPI","disable",2.6305326,4.00000004e-08,
"SPI","enable",2.6305378,3.99999999e-08,
"SPI","result",2.6305386,1e-06,0x03
"SPI","disable",2.63054092,3.99999999e-08,
"SPI","enable",2.63054612,4.00000004e-08,
"SPI","result",2.63054692,9.6e-07,0x75
"SPI","disable",2.63054924,3.99999994e-08,
"SPI","enable",2.63055444,3.99999999e-08,
"SPI","result",2.63055524,9.6e-07,0x04
"SPI","disable",2.63055752,4.00000004e-08,
"SPI","enable",2.63056272,4.00000004e-08,
"SPI","result",2.63056356,9.6e-07,0x04
"SPI","disable",2.63056584,3.99999994e-08,
"SPI","enable",2.63059124,3.99999999e-08,
"SPI","result",2.63059204,1e-06,0x15
"SPI","disable",2.63059436,3.99999999e-08,
"SPI","enable",2.63059956,4.00000004e-08,
"SPI","result",2.63060036,1e-06,0x03
"SPI","disable",2.63060268,4.00000004e-08,
"SPI","enable",2.63060788,3.99999999e-08,
"SPI","result",2.63060868,9.6e-07,0x03
"SPI","disable",2.630611,3.99999999e-08,
"SPI","enable",2.63061616,3.99999999e-08,
"SPI","result",2.630617,9.6e-07,0x75
"SPI","disable",2.63061928,4.00000004e-08,
"SPI","enable",2.63062448,3.99999999e-08,
"SPI","result",2.63062528,1e-06,0x05
"SPI","disable",2.6306276,4.00000004e-08,
"SPI","enable",2.6306328,4.00000004e-08,
"SPI","result",2.6306336,1e-06,0x05
"SPI","disable",2.63063592,3.99999999e-08,
"SPI","enable",2.63066132,3.99999999e-08,
"SPI","result",2.63066212,9.6e-07,0x15
"SPI","disable",2.63066444,3.99999999e-08,
"SPI","enable",2.63066964,4.00000004e-08,
"SPI","result",2.63067044,9.6e-07,0x03
"SPI","disable",2.63067276,4.00000004e-08,
"SPI","enable",2.63067792,3.99999999e-08,
"SPI","result",2.63067876,9.6e-07,0x03
"SPI","disable",2.63068104,3.99999999e-08,
"SPI","enable",2.63068624,3.99999999e-08,
"SPI","result",2.63068704,1e-06,0x75
"SPI","disable",2.63068936,4.00000004e-08,
"SPI","enable",2.63069456,3.99999999e-08,
"SPI","result",2.63069536,1e-06,0x06
"SPI","disable",2.63069768,4.00000004e-08,
"SPI","enable",2.63070288,4.00000004e-08,
"SPI","result",2.63070368,1e-06,0x06
"SPI","disable",2.630706,3.99999999e-08,
"SPI","enable",2.63074436,3.99999999e-08,
"SPI","result",2.6307452,9.6e-07,0x15
"SPI","disable",2.63074748,3.99999999e-08,
"SPI","enable",2.63075268,3.99999999e-08,
"SPI","result",2.63075348,9.99999999e-07,0x04
"SPI","disable",2.6307558,3.99999994e-08,
"SPI","enable",2.630761,3.99999999e-08,
"SPI","result",2.6307618,1e-06,0x04
"SPI","disable",2.63076412,4.00000004e-08,
"SPI","enable",2.63076932,3.99999994e-08,
"SPI","result",2.63077012,1e-06,0x75
"SPI","disable",2.63077244,4.00000004e-08,
"SPI","enable",2.63077764,4.00000004e-08,
"SPI","result",2.63077844,1e-06,0x02
"SPI","disable",2.63078076,3.99999999e-08,
"SPI","enable",2.63078596,4.00000004e-08,
"SPI","result",2.63078676,9.6e-07,0x02
"SPI","disable",2.63078908,4.00000004e-08,
"SPI","enable",2.63081788,3.99999999e-08,
"SPI","result",2.63081868,1e-06,0x15
"SPI","disable",2.630821,3.99999999e-08,
"SPI","enable",2.6308262,4.00000004e-08,
"SPI","result",2.630827,1e-06,0x04
"SPI","disable",2.63082932,3.99999994e-08,
"SPI","enable",2.63083452,3.99999999e-08,
"SPI","result",2.63083532,1e-06,0x04
"SPI","disable",2.63083764,3.99999999e-08,
"SPI","enable",2.63084284,3.99999994e-08,
"SPI","result",2.63084364,9.6e-07,0x75
"SPI","disable",2.63084596,4.00000004e-08,
"SPI","enable",2.63085116,3.99999999e-08,
"SPI","result",2.63085196,9.6e-07,0x04
"SPI","disable",2.63085428,3.99999999e-08,
